2023-12-21 12:17:24,812 [INFO] TRNinputs: [ 2.07408072e+01  1.00000000e+03  3.80000000e+01  0.00000000e+00
  1.99286850e+01 -8.50000000e+00  1.66666667e-02  1.00000000e+00]
2023-12-21 12:17:24,812 [DEBUG] [65451]
2023-12-21 12:17:24,817 [DEBUG] Connection to Modbus server established. Socket ('127.0.0.1', 56947)
2023-12-21 12:17:24,817 [DEBUG] Current transaction state - IDLE
2023-12-21 12:17:24,817 [DEBUG] Running transaction 1
2023-12-21 12:17:24,817 [DEBUG] SEND: 0x0 0x1 0x0 0x0 0x0 0x9 0x0 0x10 0x0 0x0 0x0 0x1 0x2 0xff 0xab
2023-12-21 12:17:24,818 [DEBUG] New Transaction state "SENDING"
2023-12-21 12:17:24,818 [DEBUG] Changing transaction state from "SENDING" to "WAITING FOR REPLY"
2023-12-21 12:17:24,858 [DEBUG] Changing transaction state from "WAITING FOR REPLY" to "PROCESSING REPLY"
2023-12-21 12:17:24,859 [DEBUG] RECV: 0x0 0x1 0x0 0x0 0x0 0x6 0x0 0x10 0x0 0x0 0x0 0x1
2023-12-21 12:17:24,859 [DEBUG] Processing: 0x0 0x1 0x0 0x0 0x0 0x6 0x0 0x10 0x0 0x0 0x0 0x1
2023-12-21 12:17:24,859 [DEBUG] Factory Response[WriteMultipleRegistersResponse': 16]
2023-12-21 12:17:24,860 [DEBUG] Adding transaction 1
2023-12-21 12:17:24,860 [DEBUG] Getting transaction 1
2023-12-21 12:17:24,860 [DEBUG] Changing transaction state from "PROCESSING REPLY" to "TRANSACTION_COMPLETE"
2023-12-21 12:17:24,860 [INFO] Successfully wrote -8.5 to PLC register 0 for 127.0.0.1:502
2023-12-21 12:17:24,861 [DEBUG] Current transaction state - TRANSACTION_COMPLETE
2023-12-21 12:17:24,861 [DEBUG] Running transaction 2
2023-12-21 12:17:24,861 [DEBUG] SEND: 0x0 0x2 0x0 0x0 0x0 0x6 0x0 0x3 0x0 0x3 0x0 0x1
2023-12-21 12:17:24,861 [DEBUG] New Transaction state "SENDING"
2023-12-21 12:17:24,862 [DEBUG] Changing transaction state from "SENDING" to "WAITING FOR REPLY"
2023-12-21 12:17:24,905 [DEBUG] Changing transaction state from "WAITING FOR REPLY" to "PROCESSING REPLY"
2023-12-21 12:17:24,906 [DEBUG] RECV: 0x0 0x2 0x0 0x0 0x0 0x5 0x0 0x3 0x2 0x0 0xa
2023-12-21 12:17:24,906 [DEBUG] Processing: 0x0 0x2 0x0 0x0 0x0 0x5 0x0 0x3 0x2 0x0 0xa
2023-12-21 12:17:24,906 [DEBUG] Factory Response[ReadHoldingRegistersResponse': 3]
2023-12-21 12:17:24,907 [DEBUG] Adding transaction 2
2023-12-21 12:17:24,907 [DEBUG] Getting transaction 2
2023-12-21 12:17:24,907 [DEBUG] Changing transaction state from "PROCESSING REPLY" to "TRANSACTION_COMPLETE"
2023-12-21 12:17:24,907 [DEBUG] Current transaction state - TRANSACTION_COMPLETE
2023-12-21 12:17:24,908 [DEBUG] Running transaction 3
2023-12-21 12:17:24,908 [DEBUG] SEND: 0x0 0x3 0x0 0x0 0x0 0x6 0x0 0x3 0x0 0x4 0x0 0x1
2023-12-21 12:17:24,908 [DEBUG] New Transaction state "SENDING"
2023-12-21 12:17:24,909 [DEBUG] Changing transaction state from "SENDING" to "WAITING FOR REPLY"
2023-12-21 12:17:24,952 [DEBUG] Changing transaction state from "WAITING FOR REPLY" to "PROCESSING REPLY"
2023-12-21 12:17:24,953 [DEBUG] RECV: 0x0 0x3 0x0 0x0 0x0 0x5 0x0 0x3 0x2 0x0 0x14
2023-12-21 12:17:24,953 [DEBUG] Processing: 0x0 0x3 0x0 0x0 0x0 0x5 0x0 0x3 0x2 0x0 0x14
2023-12-21 12:17:24,953 [DEBUG] Factory Response[ReadHoldingRegistersResponse': 3]
2023-12-21 12:17:24,954 [DEBUG] Adding transaction 3
2023-12-21 12:17:24,954 [DEBUG] Getting transaction 3
2023-12-21 12:17:24,954 [DEBUG] Changing transaction state from "PROCESSING REPLY" to "TRANSACTION_COMPLETE"
2023-12-21 12:17:24,954 [INFO] TRNData[simulationModel][outputs][x] 20.0
2023-12-21 12:17:24,955 [INFO] TRNinputs: [ 2.07408072e+01  1.00000000e+03  3.80000000e+01  0.00000000e+00
  1.99286850e+01 -8.50000000e+00  1.66666667e-02  1.00000000e+00]
2023-12-21 12:17:24,956 [DEBUG] [380, 0]
2023-12-21 12:17:24,960 [DEBUG] Connection to Modbus server established. Socket ('127.0.0.1', 56948)
2023-12-21 12:17:24,961 [DEBUG] Current transaction state - IDLE
2023-12-21 12:17:24,961 [DEBUG] Running transaction 1
2023-12-21 12:17:24,961 [DEBUG] SEND: 0x0 0x1 0x0 0x0 0x0 0x9 0x0 0x10 0x0 0x0 0x0 0x1 0x2 0x1 0x7c
2023-12-21 12:17:24,962 [DEBUG] New Transaction state "SENDING"
2023-12-21 12:17:24,962 [DEBUG] Changing transaction state from "SENDING" to "WAITING FOR REPLY"
2023-12-21 12:17:24,999 [DEBUG] Changing transaction state from "WAITING FOR REPLY" to "PROCESSING REPLY"
2023-12-21 12:17:25,000 [DEBUG] RECV: 0x0 0x1 0x0 0x0 0x0 0x6 0x0 0x10 0x0 0x0 0x0 0x1
2023-12-21 12:17:25,000 [DEBUG] Processing: 0x0 0x1 0x0 0x0 0x0 0x6 0x0 0x10 0x0 0x0 0x0 0x1
2023-12-21 12:17:25,001 [DEBUG] Factory Response[WriteMultipleRegistersResponse': 16]
2023-12-21 12:17:25,001 [DEBUG] Adding transaction 1
2023-12-21 12:17:25,001 [DEBUG] Getting transaction 1
2023-12-21 12:17:25,002 [DEBUG] Changing transaction state from "PROCESSING REPLY" to "TRANSACTION_COMPLETE"
2023-12-21 12:17:25,002 [INFO] Successfully wrote 38.0 to PLC register 0 for 127.0.0.1:503
2023-12-21 12:17:25,002 [DEBUG] Current transaction state - TRANSACTION_COMPLETE
2023-12-21 12:17:25,002 [DEBUG] Running transaction 2
2023-12-21 12:17:25,003 [DEBUG] SEND: 0x0 0x2 0x0 0x0 0x0 0x9 0x0 0x10 0x0 0x1 0x0 0x1 0x2 0x0 0x0
2023-12-21 12:17:25,003 [DEBUG] New Transaction state "SENDING"
2023-12-21 12:17:25,003 [DEBUG] Changing transaction state from "SENDING" to "WAITING FOR REPLY"
2023-12-21 12:17:25,047 [DEBUG] Changing transaction state from "WAITING FOR REPLY" to "PROCESSING REPLY"
2023-12-21 12:17:25,047 [DEBUG] RECV: 0x0 0x2 0x0 0x0 0x0 0x6 0x0 0x10 0x0 0x1 0x0 0x1
2023-12-21 12:17:25,047 [DEBUG] Processing: 0x0 0x2 0x0 0x0 0x0 0x6 0x0 0x10 0x0 0x1 0x0 0x1
2023-12-21 12:17:25,047 [DEBUG] Factory Response[WriteMultipleRegistersResponse': 16]
2023-12-21 12:17:25,047 [DEBUG] Adding transaction 2
2023-12-21 12:17:25,048 [DEBUG] Getting transaction 2
2023-12-21 12:17:25,048 [DEBUG] Changing transaction state from "PROCESSING REPLY" to "TRANSACTION_COMPLETE"
2023-12-21 12:17:25,048 [INFO] Successfully wrote 0.0 to PLC register 1 for 127.0.0.1:503
2023-12-21 12:17:25,048 [INFO] server_inputs: [38.0, 0.0]
2023-12-21 12:17:26,077 [INFO] TRNinputs: [ 1.95772325e+01  1.00000000e+03  3.80000000e+01  0.00000000e+00
  1.97847055e+01 -8.50000000e+00  3.33333333e-02  1.00000000e+00]
2023-12-21 12:17:26,077 [DEBUG] [65451]
2023-12-21 12:17:26,078 [DEBUG] Current transaction state - TRANSACTION_COMPLETE
2023-12-21 12:17:26,078 [DEBUG] Running transaction 4
2023-12-21 12:17:26,078 [DEBUG] SEND: 0x0 0x4 0x0 0x0 0x0 0x9 0x0 0x10 0x0 0x0 0x0 0x1 0x2 0xff 0xab
2023-12-21 12:17:26,078 [DEBUG] New Transaction state "SENDING"
2023-12-21 12:17:26,078 [DEBUG] Changing transaction state from "SENDING" to "WAITING FOR REPLY"
2023-12-21 12:17:26,126 [DEBUG] Changing transaction state from "WAITING FOR REPLY" to "PROCESSING REPLY"
2023-12-21 12:17:26,126 [DEBUG] RECV: 0x0 0x4 0x0 0x0 0x0 0x6 0x0 0x10 0x0 0x0 0x0 0x1
2023-12-21 12:17:26,126 [DEBUG] Processing: 0x0 0x4 0x0 0x0 0x0 0x6 0x0 0x10 0x0 0x0 0x0 0x1
2023-12-21 12:17:26,126 [DEBUG] Factory Response[WriteMultipleRegistersResponse': 16]
2023-12-21 12:17:26,127 [DEBUG] Adding transaction 4
2023-12-21 12:17:26,127 [DEBUG] Getting transaction 4
2023-12-21 12:17:26,127 [DEBUG] Changing transaction state from "PROCESSING REPLY" to "TRANSACTION_COMPLETE"
2023-12-21 12:17:26,127 [INFO] Successfully wrote -8.5 to PLC register 0 for 127.0.0.1:502
2023-12-21 12:17:26,127 [DEBUG] Current transaction state - TRANSACTION_COMPLETE
2023-12-21 12:17:26,127 [DEBUG] Running transaction 5
2023-12-21 12:17:26,127 [DEBUG] SEND: 0x0 0x5 0x0 0x0 0x0 0x6 0x0 0x3 0x0 0x3 0x0 0x1
2023-12-21 12:17:26,127 [DEBUG] New Transaction state "SENDING"
2023-12-21 12:17:26,127 [DEBUG] Changing transaction state from "SENDING" to "WAITING FOR REPLY"
2023-12-21 12:17:26,173 [DEBUG] Changing transaction state from "WAITING FOR REPLY" to "PROCESSING REPLY"
2023-12-21 12:17:26,173 [DEBUG] RECV: 0x0 0x5 0x0 0x0 0x0 0x5 0x0 0x3 0x2 0x0 0xa
2023-12-21 12:17:26,173 [DEBUG] Processing: 0x0 0x5 0x0 0x0 0x0 0x5 0x0 0x3 0x2 0x0 0xa
2023-12-21 12:17:26,174 [DEBUG] Factory Response[ReadHoldingRegistersResponse': 3]
2023-12-21 12:17:26,174 [DEBUG] Adding transaction 5
2023-12-21 12:17:26,174 [DEBUG] Getting transaction 5
2023-12-21 12:17:26,174 [DEBUG] Changing transaction state from "PROCESSING REPLY" to "TRANSACTION_COMPLETE"
2023-12-21 12:17:26,174 [DEBUG] Current transaction state - TRANSACTION_COMPLETE
2023-12-21 12:17:26,174 [DEBUG] Running transaction 6
2023-12-21 12:17:26,175 [DEBUG] SEND: 0x0 0x6 0x0 0x0 0x0 0x6 0x0 0x3 0x0 0x4 0x0 0x1
2023-12-21 12:17:26,175 [DEBUG] New Transaction state "SENDING"
2023-12-21 12:17:26,175 [DEBUG] Changing transaction state from "SENDING" to "WAITING FOR REPLY"
2023-12-21 12:17:26,221 [DEBUG] Changing transaction state from "WAITING FOR REPLY" to "PROCESSING REPLY"
2023-12-21 12:17:26,221 [DEBUG] RECV: 0x0 0x6 0x0 0x0 0x0 0x5 0x0 0x3 0x2 0x0 0x14
2023-12-21 12:17:26,221 [DEBUG] Processing: 0x0 0x6 0x0 0x0 0x0 0x5 0x0 0x3 0x2 0x0 0x14
2023-12-21 12:17:26,221 [DEBUG] Factory Response[ReadHoldingRegistersResponse': 3]
2023-12-21 12:17:26,221 [DEBUG] Adding transaction 6
2023-12-21 12:17:26,221 [DEBUG] Getting transaction 6
2023-12-21 12:17:26,221 [DEBUG] Changing transaction state from "PROCESSING REPLY" to "TRANSACTION_COMPLETE"
2023-12-21 12:17:26,221 [INFO] TRNData[simulationModel][outputs][x] 20.0
2023-12-21 12:17:26,221 [INFO] TRNinputs: [ 1.95772325e+01  1.00000000e+03  3.80000000e+01  0.00000000e+00
  1.97847055e+01 -8.50000000e+00  3.33333333e-02  1.00000000e+00]
2023-12-21 12:17:26,221 [DEBUG] [380, 0]
2023-12-21 12:17:26,221 [DEBUG] Current transaction state - TRANSACTION_COMPLETE
2023-12-21 12:17:26,221 [DEBUG] Running transaction 3
2023-12-21 12:17:26,221 [DEBUG] SEND: 0x0 0x3 0x0 0x0 0x0 0x9 0x0 0x10 0x0 0x0 0x0 0x1 0x2 0x1 0x7c
2023-12-21 12:17:26,221 [DEBUG] New Transaction state "SENDING"
2023-12-21 12:17:26,221 [DEBUG] Changing transaction state from "SENDING" to "WAITING FOR REPLY"
2023-12-21 12:17:26,268 [DEBUG] Changing transaction state from "WAITING FOR REPLY" to "PROCESSING REPLY"
2023-12-21 12:17:26,269 [DEBUG] RECV: 0x0 0x3 0x0 0x0 0x0 0x6 0x0 0x10 0x0 0x0 0x0 0x1
2023-12-21 12:17:26,269 [DEBUG] Processing: 0x0 0x3 0x0 0x0 0x0 0x6 0x0 0x10 0x0 0x0 0x0 0x1
2023-12-21 12:17:26,269 [DEBUG] Factory Response[WriteMultipleRegistersResponse': 16]
2023-12-21 12:17:26,270 [DEBUG] Adding transaction 3
2023-12-21 12:17:26,270 [DEBUG] Getting transaction 3
2023-12-21 12:17:26,270 [DEBUG] Changing transaction state from "PROCESSING REPLY" to "TRANSACTION_COMPLETE"
2023-12-21 12:17:26,270 [INFO] Successfully wrote 38.0 to PLC register 0 for 127.0.0.1:503
2023-12-21 12:17:26,271 [DEBUG] Current transaction state - TRANSACTION_COMPLETE
2023-12-21 12:17:26,271 [DEBUG] Running transaction 4
2023-12-21 12:17:26,271 [DEBUG] SEND: 0x0 0x4 0x0 0x0 0x0 0x9 0x0 0x10 0x0 0x1 0x0 0x1 0x2 0x0 0x0
2023-12-21 12:17:26,272 [DEBUG] New Transaction state "SENDING"
2023-12-21 12:17:26,272 [DEBUG] Changing transaction state from "SENDING" to "WAITING FOR REPLY"
2023-12-21 12:17:26,316 [DEBUG] Changing transaction state from "WAITING FOR REPLY" to "PROCESSING REPLY"
2023-12-21 12:17:26,316 [DEBUG] RECV: 0x0 0x4 0x0 0x0 0x0 0x6 0x0 0x10 0x0 0x1 0x0 0x1
2023-12-21 12:17:26,316 [DEBUG] Processing: 0x0 0x4 0x0 0x0 0x0 0x6 0x0 0x10 0x0 0x1 0x0 0x1
2023-12-21 12:17:26,317 [DEBUG] Factory Response[WriteMultipleRegistersResponse': 16]
2023-12-21 12:17:26,317 [DEBUG] Adding transaction 4
2023-12-21 12:17:26,317 [DEBUG] Getting transaction 4
2023-12-21 12:17:26,318 [DEBUG] Changing transaction state from "PROCESSING REPLY" to "TRANSACTION_COMPLETE"
2023-12-21 12:17:26,318 [INFO] Successfully wrote 0.0 to PLC register 1 for 127.0.0.1:503
2023-12-21 12:17:26,318 [INFO] server_inputs: [38.0, 0.0]
2023-12-21 12:17:27,344 [INFO] TRNinputs: [ 1.78119198e+01  1.00000000e+03  3.80000000e+01  0.00000000e+00
  1.96423368e+01 -8.50000000e+00  5.00000000e-02  1.00000000e+00]
2023-12-21 12:17:27,344 [DEBUG] [65451]
2023-12-21 12:17:27,344 [DEBUG] Current transaction state - TRANSACTION_COMPLETE
2023-12-21 12:17:27,344 [DEBUG] Running transaction 7
2023-12-21 12:17:27,344 [DEBUG] SEND: 0x0 0x7 0x0 0x0 0x0 0x9 0x0 0x10 0x0 0x0 0x0 0x1 0x2 0xff 0xab
2023-12-21 12:17:27,345 [DEBUG] New Transaction state "SENDING"
2023-12-21 12:17:27,345 [DEBUG] Changing transaction state from "SENDING" to "WAITING FOR REPLY"
2023-12-21 12:17:27,391 [DEBUG] Changing transaction state from "WAITING FOR REPLY" to "PROCESSING REPLY"
2023-12-21 12:17:27,391 [DEBUG] RECV: 0x0 0x7 0x0 0x0 0x0 0x6 0x0 0x10 0x0 0x0 0x0 0x1
2023-12-21 12:17:27,391 [DEBUG] Processing: 0x0 0x7 0x0 0x0 0x0 0x6 0x0 0x10 0x0 0x0 0x0 0x1
2023-12-21 12:17:27,391 [DEBUG] Factory Response[WriteMultipleRegistersResponse': 16]
2023-12-21 12:17:27,391 [DEBUG] Adding transaction 7
2023-12-21 12:17:27,392 [DEBUG] Getting transaction 7
2023-12-21 12:17:27,392 [DEBUG] Changing transaction state from "PROCESSING REPLY" to "TRANSACTION_COMPLETE"
2023-12-21 12:17:27,392 [INFO] Successfully wrote -8.5 to PLC register 0 for 127.0.0.1:502
2023-12-21 12:17:27,392 [DEBUG] Current transaction state - TRANSACTION_COMPLETE
2023-12-21 12:17:27,392 [DEBUG] Running transaction 8
2023-12-21 12:17:27,392 [DEBUG] SEND: 0x0 0x8 0x0 0x0 0x0 0x6 0x0 0x3 0x0 0x3 0x0 0x1
2023-12-21 12:17:27,392 [DEBUG] New Transaction state "SENDING"
2023-12-21 12:17:27,392 [DEBUG] Changing transaction state from "SENDING" to "WAITING FOR REPLY"
2023-12-21 12:17:27,438 [DEBUG] Changing transaction state from "WAITING FOR REPLY" to "PROCESSING REPLY"
2023-12-21 12:17:27,439 [DEBUG] RECV: 0x0 0x8 0x0 0x0 0x0 0x5 0x0 0x3 0x2 0x0 0xa
2023-12-21 12:17:27,439 [DEBUG] Processing: 0x0 0x8 0x0 0x0 0x0 0x5 0x0 0x3 0x2 0x0 0xa
2023-12-21 12:17:27,439 [DEBUG] Factory Response[ReadHoldingRegistersResponse': 3]
2023-12-21 12:17:27,440 [DEBUG] Adding transaction 8
2023-12-21 12:17:27,440 [DEBUG] Getting transaction 8
2023-12-21 12:17:27,440 [DEBUG] Changing transaction state from "PROCESSING REPLY" to "TRANSACTION_COMPLETE"
2023-12-21 12:17:27,440 [DEBUG] Current transaction state - TRANSACTION_COMPLETE
2023-12-21 12:17:27,441 [DEBUG] Running transaction 9
2023-12-21 12:17:27,441 [DEBUG] SEND: 0x0 0x9 0x0 0x0 0x0 0x6 0x0 0x3 0x0 0x4 0x0 0x1
2023-12-21 12:17:27,441 [DEBUG] New Transaction state "SENDING"
2023-12-21 12:17:27,442 [DEBUG] Changing transaction state from "SENDING" to "WAITING FOR REPLY"
2023-12-21 12:17:27,485 [DEBUG] Changing transaction state from "WAITING FOR REPLY" to "PROCESSING REPLY"
2023-12-21 12:17:27,486 [DEBUG] RECV: 0x0 0x9 0x0 0x0 0x0 0x5 0x0 0x3 0x2 0x0 0x14
2023-12-21 12:17:27,486 [DEBUG] Processing: 0x0 0x9 0x0 0x0 0x0 0x5 0x0 0x3 0x2 0x0 0x14
2023-12-21 12:17:27,486 [DEBUG] Factory Response[ReadHoldingRegistersResponse': 3]
2023-12-21 12:17:27,487 [DEBUG] Adding transaction 9
2023-12-21 12:17:27,487 [DEBUG] Getting transaction 9
2023-12-21 12:17:27,487 [DEBUG] Changing transaction state from "PROCESSING REPLY" to "TRANSACTION_COMPLETE"
2023-12-21 12:17:27,488 [INFO] TRNData[simulationModel][outputs][x] 20.0
2023-12-21 12:17:27,488 [INFO] TRNinputs: [ 1.78119198e+01  1.00000000e+03  3.80000000e+01  0.00000000e+00
  1.96423368e+01 -8.50000000e+00  5.00000000e-02  1.00000000e+00]
2023-12-21 12:17:27,489 [DEBUG] [380, 0]
2023-12-21 12:17:27,489 [DEBUG] Current transaction state - TRANSACTION_COMPLETE
2023-12-21 12:17:27,489 [DEBUG] Running transaction 5
2023-12-21 12:17:27,490 [DEBUG] SEND: 0x0 0x5 0x0 0x0 0x0 0x9 0x0 0x10 0x0 0x0 0x0 0x1 0x2 0x1 0x7c
2023-12-21 12:17:27,490 [DEBUG] New Transaction state "SENDING"
2023-12-21 12:17:27,490 [DEBUG] Changing transaction state from "SENDING" to "WAITING FOR REPLY"
2023-12-21 12:17:27,532 [DEBUG] Changing transaction state from "WAITING FOR REPLY" to "PROCESSING REPLY"
2023-12-21 12:17:27,532 [DEBUG] RECV: 0x0 0x5 0x0 0x0 0x0 0x6 0x0 0x10 0x0 0x0 0x0 0x1
2023-12-21 12:17:27,532 [DEBUG] Processing: 0x0 0x5 0x0 0x0 0x0 0x6 0x0 0x10 0x0 0x0 0x0 0x1
2023-12-21 12:17:27,532 [DEBUG] Factory Response[WriteMultipleRegistersResponse': 16]
2023-12-21 12:17:27,532 [DEBUG] Adding transaction 5
2023-12-21 12:17:27,532 [DEBUG] Getting transaction 5
2023-12-21 12:17:27,532 [DEBUG] Changing transaction state from "PROCESSING REPLY" to "TRANSACTION_COMPLETE"
2023-12-21 12:17:27,532 [INFO] Successfully wrote 38.0 to PLC register 0 for 127.0.0.1:503
2023-12-21 12:17:27,533 [DEBUG] Current transaction state - TRANSACTION_COMPLETE
2023-12-21 12:17:27,533 [DEBUG] Running transaction 6
2023-12-21 12:17:27,533 [DEBUG] SEND: 0x0 0x6 0x0 0x0 0x0 0x9 0x0 0x10 0x0 0x1 0x0 0x1 0x2 0x0 0x0
2023-12-21 12:17:27,533 [DEBUG] New Transaction state "SENDING"
2023-12-21 12:17:27,533 [DEBUG] Changing transaction state from "SENDING" to "WAITING FOR REPLY"
2023-12-21 12:17:27,579 [DEBUG] Changing transaction state from "WAITING FOR REPLY" to "PROCESSING REPLY"
2023-12-21 12:17:27,579 [DEBUG] RECV: 0x0 0x6 0x0 0x0 0x0 0x6 0x0 0x10 0x0 0x1 0x0 0x1
2023-12-21 12:17:27,579 [DEBUG] Processing: 0x0 0x6 0x0 0x0 0x0 0x6 0x0 0x10 0x0 0x1 0x0 0x1
2023-12-21 12:17:27,579 [DEBUG] Factory Response[WriteMultipleRegistersResponse': 16]
2023-12-21 12:17:27,579 [DEBUG] Adding transaction 6
2023-12-21 12:17:27,579 [DEBUG] Getting transaction 6
2023-12-21 12:17:27,580 [DEBUG] Changing transaction state from "PROCESSING REPLY" to "TRANSACTION_COMPLETE"
2023-12-21 12:17:27,580 [INFO] Successfully wrote 0.0 to PLC register 1 for 127.0.0.1:503
2023-12-21 12:17:27,580 [INFO] server_inputs: [38.0, 0.0]
2023-12-21 12:17:28,613 [INFO] TRNinputs: [ 1.68522205e+01  1.00000000e+03  3.80000000e+01  0.00000000e+00
  1.95084275e+01 -8.50000000e+00  6.66666667e-02  1.00000000e+00]
2023-12-21 12:17:28,613 [DEBUG] [65451]
2023-12-21 12:17:28,613 [DEBUG] Current transaction state - TRANSACTION_COMPLETE
2023-12-21 12:17:28,613 [DEBUG] Running transaction 10
2023-12-21 12:17:28,614 [DEBUG] SEND: 0x0 0xa 0x0 0x0 0x0 0x9 0x0 0x10 0x0 0x0 0x0 0x1 0x2 0xff 0xab
2023-12-21 12:17:28,614 [DEBUG] New Transaction state "SENDING"
2023-12-21 12:17:28,614 [DEBUG] Changing transaction state from "SENDING" to "WAITING FOR REPLY"
2023-12-21 12:17:28,655 [DEBUG] Changing transaction state from "WAITING FOR REPLY" to "PROCESSING REPLY"
2023-12-21 12:17:28,655 [DEBUG] RECV: 0x0 0xa 0x0 0x0 0x0 0x6 0x0 0x10 0x0 0x0 0x0 0x1
2023-12-21 12:17:28,655 [DEBUG] Processing: 0x0 0xa 0x0 0x0 0x0 0x6 0x0 0x10 0x0 0x0 0x0 0x1
2023-12-21 12:17:28,655 [DEBUG] Factory Response[WriteMultipleRegistersResponse': 16]
2023-12-21 12:17:28,655 [DEBUG] Adding transaction 10
2023-12-21 12:17:28,656 [DEBUG] Getting transaction 10
2023-12-21 12:17:28,656 [DEBUG] Changing transaction state from "PROCESSING REPLY" to "TRANSACTION_COMPLETE"
2023-12-21 12:17:28,656 [INFO] Successfully wrote -8.5 to PLC register 0 for 127.0.0.1:502
2023-12-21 12:17:28,656 [DEBUG] Current transaction state - TRANSACTION_COMPLETE
2023-12-21 12:17:28,656 [DEBUG] Running transaction 11
2023-12-21 12:17:28,656 [DEBUG] SEND: 0x0 0xb 0x0 0x0 0x0 0x6 0x0 0x3 0x0 0x3 0x0 0x1
2023-12-21 12:17:28,656 [DEBUG] New Transaction state "SENDING"
2023-12-21 12:17:28,656 [DEBUG] Changing transaction state from "SENDING" to "WAITING FOR REPLY"
2023-12-21 12:17:28,703 [DEBUG] Changing transaction state from "WAITING FOR REPLY" to "PROCESSING REPLY"
2023-12-21 12:17:28,704 [DEBUG] RECV: 0x0 0xb 0x0 0x0 0x0 0x5 0x0 0x3 0x2 0x0 0xa
2023-12-21 12:17:28,704 [DEBUG] Processing: 0x0 0xb 0x0 0x0 0x0 0x5 0x0 0x3 0x2 0x0 0xa
2023-12-21 12:17:28,704 [DEBUG] Factory Response[ReadHoldingRegistersResponse': 3]
2023-12-21 12:17:28,705 [DEBUG] Adding transaction 11
2023-12-21 12:17:28,705 [DEBUG] Getting transaction 11
2023-12-21 12:17:28,705 [DEBUG] Changing transaction state from "PROCESSING REPLY" to "TRANSACTION_COMPLETE"
2023-12-21 12:17:28,705 [DEBUG] Current transaction state - TRANSACTION_COMPLETE
2023-12-21 12:17:28,706 [DEBUG] Running transaction 12
2023-12-21 12:17:28,706 [DEBUG] SEND: 0x0 0xc 0x0 0x0 0x0 0x6 0x0 0x3 0x0 0x4 0x0 0x1
2023-12-21 12:17:28,706 [DEBUG] New Transaction state "SENDING"
2023-12-21 12:17:28,707 [DEBUG] Changing transaction state from "SENDING" to "WAITING FOR REPLY"
2023-12-21 12:17:28,751 [DEBUG] Changing transaction state from "WAITING FOR REPLY" to "PROCESSING REPLY"
2023-12-21 12:17:28,751 [DEBUG] RECV: 0x0 0xc 0x0 0x0 0x0 0x5 0x0 0x3 0x2 0x0 0x14
2023-12-21 12:17:28,751 [DEBUG] Processing: 0x0 0xc 0x0 0x0 0x0 0x5 0x0 0x3 0x2 0x0 0x14
2023-12-21 12:17:28,752 [DEBUG] Factory Response[ReadHoldingRegistersResponse': 3]
2023-12-21 12:17:28,752 [DEBUG] Adding transaction 12
2023-12-21 12:17:28,752 [DEBUG] Getting transaction 12
2023-12-21 12:17:28,752 [DEBUG] Changing transaction state from "PROCESSING REPLY" to "TRANSACTION_COMPLETE"
2023-12-21 12:17:28,753 [INFO] TRNData[simulationModel][outputs][x] 20.0
2023-12-21 12:17:28,754 [INFO] TRNinputs: [ 1.68522205e+01  1.00000000e+03  3.80000000e+01  0.00000000e+00
  1.95084275e+01 -8.50000000e+00  6.66666667e-02  1.00000000e+00]
2023-12-21 12:17:28,754 [DEBUG] [380, 0]
2023-12-21 12:17:28,754 [DEBUG] Current transaction state - TRANSACTION_COMPLETE
2023-12-21 12:17:28,754 [DEBUG] Running transaction 7
2023-12-21 12:17:28,755 [DEBUG] SEND: 0x0 0x7 0x0 0x0 0x0 0x9 0x0 0x10 0x0 0x0 0x0 0x1 0x2 0x1 0x7c
2023-12-21 12:17:28,755 [DEBUG] New Transaction state "SENDING"
2023-12-21 12:17:28,755 [DEBUG] Changing transaction state from "SENDING" to "WAITING FOR REPLY"
2023-12-21 12:17:28,797 [DEBUG] Changing transaction state from "WAITING FOR REPLY" to "PROCESSING REPLY"
2023-12-21 12:17:28,798 [DEBUG] RECV: 0x0 0x7 0x0 0x0 0x0 0x6 0x0 0x10 0x0 0x0 0x0 0x1
2023-12-21 12:17:28,798 [DEBUG] Processing: 0x0 0x7 0x0 0x0 0x0 0x6 0x0 0x10 0x0 0x0 0x0 0x1
2023-12-21 12:17:28,799 [DEBUG] Factory Response[WriteMultipleRegistersResponse': 16]
2023-12-21 12:17:28,799 [DEBUG] Adding transaction 7
2023-12-21 12:17:28,799 [DEBUG] Getting transaction 7
2023-12-21 12:17:28,799 [DEBUG] Changing transaction state from "PROCESSING REPLY" to "TRANSACTION_COMPLETE"
2023-12-21 12:17:28,800 [INFO] Successfully wrote 38.0 to PLC register 0 for 127.0.0.1:503
2023-12-21 12:17:28,800 [DEBUG] Current transaction state - TRANSACTION_COMPLETE
2023-12-21 12:17:28,800 [DEBUG] Running transaction 8
2023-12-21 12:17:28,800 [DEBUG] SEND: 0x0 0x8 0x0 0x0 0x0 0x9 0x0 0x10 0x0 0x1 0x0 0x1 0x2 0x0 0x0
2023-12-21 12:17:28,800 [DEBUG] New Transaction state "SENDING"
2023-12-21 12:17:28,800 [DEBUG] Changing transaction state from "SENDING" to "WAITING FOR REPLY"
2023-12-21 12:17:28,845 [DEBUG] Changing transaction state from "WAITING FOR REPLY" to "PROCESSING REPLY"
2023-12-21 12:17:28,845 [DEBUG] RECV: 0x0 0x8 0x0 0x0 0x0 0x6 0x0 0x10 0x0 0x1 0x0 0x1
2023-12-21 12:17:28,845 [DEBUG] Processing: 0x0 0x8 0x0 0x0 0x0 0x6 0x0 0x10 0x0 0x1 0x0 0x1
2023-12-21 12:17:28,846 [DEBUG] Factory Response[WriteMultipleRegistersResponse': 16]
2023-12-21 12:17:28,846 [DEBUG] Adding transaction 8
2023-12-21 12:17:28,846 [DEBUG] Getting transaction 8
2023-12-21 12:17:28,846 [DEBUG] Changing transaction state from "PROCESSING REPLY" to "TRANSACTION_COMPLETE"
2023-12-21 12:17:28,846 [INFO] Successfully wrote 0.0 to PLC register 1 for 127.0.0.1:503
2023-12-21 12:17:28,846 [INFO] server_inputs: [38.0, 0.0]
2023-12-21 12:17:29,886 [INFO] TRNinputs: [ 1.61184250e+01  1.00000000e+03  3.80000000e+01  0.00000000e+00
  1.93832053e+01 -8.50000000e+00  8.33333333e-02  1.00000000e+00]
2023-12-21 12:17:29,886 [DEBUG] [65451]
2023-12-21 12:17:29,886 [DEBUG] Current transaction state - TRANSACTION_COMPLETE
2023-12-21 12:17:29,887 [DEBUG] Running transaction 13
2023-12-21 12:17:29,887 [DEBUG] SEND: 0x0 0xd 0x0 0x0 0x0 0x9 0x0 0x10 0x0 0x0 0x0 0x1 0x2 0xff 0xab
2023-12-21 12:17:29,887 [DEBUG] New Transaction state "SENDING"
2023-12-21 12:17:29,887 [DEBUG] Changing transaction state from "SENDING" to "WAITING FOR REPLY"
2023-12-21 12:17:29,921 [DEBUG] Changing transaction state from "WAITING FOR REPLY" to "PROCESSING REPLY"
2023-12-21 12:17:29,921 [DEBUG] RECV: 0x0 0xd 0x0 0x0 0x0 0x6 0x0 0x10 0x0 0x0 0x0 0x1
2023-12-21 12:17:29,921 [DEBUG] Processing: 0x0 0xd 0x0 0x0 0x0 0x6 0x0 0x10 0x0 0x0 0x0 0x1
2023-12-21 12:17:29,921 [DEBUG] Factory Response[WriteMultipleRegistersResponse': 16]
2023-12-21 12:17:29,921 [DEBUG] Adding transaction 13
2023-12-21 12:17:29,921 [DEBUG] Getting transaction 13
2023-12-21 12:17:29,921 [DEBUG] Changing transaction state from "PROCESSING REPLY" to "TRANSACTION_COMPLETE"
2023-12-21 12:17:29,921 [INFO] Successfully wrote -8.5 to PLC register 0 for 127.0.0.1:502
2023-12-21 12:17:29,921 [DEBUG] Current transaction state - TRANSACTION_COMPLETE
2023-12-21 12:17:29,921 [DEBUG] Running transaction 14
2023-12-21 12:17:29,921 [DEBUG] SEND: 0x0 0xe 0x0 0x0 0x0 0x6 0x0 0x3 0x0 0x3 0x0 0x1
2023-12-21 12:17:29,921 [DEBUG] New Transaction state "SENDING"
2023-12-21 12:17:29,921 [DEBUG] Changing transaction state from "SENDING" to "WAITING FOR REPLY"
2023-12-21 12:17:29,968 [DEBUG] Changing transaction state from "WAITING FOR REPLY" to "PROCESSING REPLY"
2023-12-21 12:17:29,968 [DEBUG] RECV: 0x0 0xe 0x0 0x0 0x0 0x5 0x0 0x3 0x2 0x0 0xa
2023-12-21 12:17:29,968 [DEBUG] Processing: 0x0 0xe 0x0 0x0 0x0 0x5 0x0 0x3 0x2 0x0 0xa
2023-12-21 12:17:29,968 [DEBUG] Factory Response[ReadHoldingRegistersResponse': 3]
2023-12-21 12:17:29,969 [DEBUG] Adding transaction 14
2023-12-21 12:17:29,969 [DEBUG] Getting transaction 14
2023-12-21 12:17:29,969 [DEBUG] Changing transaction state from "PROCESSING REPLY" to "TRANSACTION_COMPLETE"
2023-12-21 12:17:29,969 [DEBUG] Current transaction state - TRANSACTION_COMPLETE
2023-12-21 12:17:29,969 [DEBUG] Running transaction 15
2023-12-21 12:17:29,969 [DEBUG] SEND: 0x0 0xf 0x0 0x0 0x0 0x6 0x0 0x3 0x0 0x4 0x0 0x1
2023-12-21 12:17:29,969 [DEBUG] New Transaction state "SENDING"
2023-12-21 12:17:29,969 [DEBUG] Changing transaction state from "SENDING" to "WAITING FOR REPLY"
2023-12-21 12:17:30,014 [DEBUG] Changing transaction state from "WAITING FOR REPLY" to "PROCESSING REPLY"
2023-12-21 12:17:30,015 [DEBUG] RECV: 0x0 0xf 0x0 0x0 0x0 0x5 0x0 0x3 0x2 0x0 0x14
2023-12-21 12:17:30,015 [DEBUG] Processing: 0x0 0xf 0x0 0x0 0x0 0x5 0x0 0x3 0x2 0x0 0x14
2023-12-21 12:17:30,015 [DEBUG] Factory Response[ReadHoldingRegistersResponse': 3]
2023-12-21 12:17:30,016 [DEBUG] Adding transaction 15
2023-12-21 12:17:30,016 [DEBUG] Getting transaction 15
2023-12-21 12:17:30,016 [DEBUG] Changing transaction state from "PROCESSING REPLY" to "TRANSACTION_COMPLETE"
2023-12-21 12:17:30,016 [INFO] TRNData[simulationModel][outputs][x] 20.0
2023-12-21 12:17:30,017 [INFO] TRNinputs: [ 1.61184250e+01  1.00000000e+03  3.80000000e+01  0.00000000e+00
  1.93832053e+01 -8.50000000e+00  8.33333333e-02  1.00000000e+00]
2023-12-21 12:17:30,018 [DEBUG] [380, 0]
2023-12-21 12:17:30,018 [DEBUG] Current transaction state - TRANSACTION_COMPLETE
2023-12-21 12:17:30,018 [DEBUG] Running transaction 9
2023-12-21 12:17:30,018 [DEBUG] SEND: 0x0 0x9 0x0 0x0 0x0 0x9 0x0 0x10 0x0 0x0 0x0 0x1 0x2 0x1 0x7c
2023-12-21 12:17:30,019 [DEBUG] New Transaction state "SENDING"
2023-12-21 12:17:30,019 [DEBUG] Changing transaction state from "SENDING" to "WAITING FOR REPLY"
2023-12-21 12:17:30,061 [DEBUG] Changing transaction state from "WAITING FOR REPLY" to "PROCESSING REPLY"
2023-12-21 12:17:30,062 [DEBUG] RECV: 0x0 0x9 0x0 0x0 0x0 0x6 0x0 0x10 0x0 0x0 0x0 0x1
2023-12-21 12:17:30,062 [DEBUG] Processing: 0x0 0x9 0x0 0x0 0x0 0x6 0x0 0x10 0x0 0x0 0x0 0x1
2023-12-21 12:17:30,063 [DEBUG] Factory Response[WriteMultipleRegistersResponse': 16]
2023-12-21 12:17:30,064 [DEBUG] Adding transaction 9
2023-12-21 12:17:30,065 [DEBUG] Getting transaction 9
2023-12-21 12:17:30,065 [DEBUG] Changing transaction state from "PROCESSING REPLY" to "TRANSACTION_COMPLETE"
2023-12-21 12:17:30,066 [INFO] Successfully wrote 38.0 to PLC register 0 for 127.0.0.1:503
2023-12-21 12:17:30,066 [DEBUG] Current transaction state - TRANSACTION_COMPLETE
2023-12-21 12:17:30,066 [DEBUG] Running transaction 10
2023-12-21 12:17:30,066 [DEBUG] SEND: 0x0 0xa 0x0 0x0 0x0 0x9 0x0 0x10 0x0 0x1 0x0 0x1 0x2 0x0 0x0
2023-12-21 12:17:30,066 [DEBUG] New Transaction state "SENDING"
2023-12-21 12:17:30,067 [DEBUG] Changing transaction state from "SENDING" to "WAITING FOR REPLY"
2023-12-21 12:17:30,108 [DEBUG] Changing transaction state from "WAITING FOR REPLY" to "PROCESSING REPLY"
2023-12-21 12:17:30,109 [DEBUG] RECV: 0x0 0xa 0x0 0x0 0x0 0x6 0x0 0x10 0x0 0x1 0x0 0x1
2023-12-21 12:17:30,109 [DEBUG] Processing: 0x0 0xa 0x0 0x0 0x0 0x6 0x0 0x10 0x0 0x1 0x0 0x1
2023-12-21 12:17:30,110 [DEBUG] Factory Response[WriteMultipleRegistersResponse': 16]
2023-12-21 12:17:30,110 [DEBUG] Adding transaction 10
2023-12-21 12:17:30,110 [DEBUG] Getting transaction 10
2023-12-21 12:17:30,110 [DEBUG] Changing transaction state from "PROCESSING REPLY" to "TRANSACTION_COMPLETE"
2023-12-21 12:17:30,111 [INFO] Successfully wrote 0.0 to PLC register 1 for 127.0.0.1:503
2023-12-21 12:17:30,111 [INFO] server_inputs: [38.0, 0.0]
2023-12-21 12:28:08,886 [INFO] TRNinputs: [ 2.07408072e+01  1.00000000e+03  3.80000000e+01  0.00000000e+00
  1.99286850e+01 -8.50000000e+00  1.66666667e-02  1.00000000e+00]
2023-12-21 12:28:08,887 [DEBUG] [65451]
2023-12-21 12:28:08,892 [DEBUG] Connection to Modbus server established. Socket ('127.0.0.1', 16550)
2023-12-21 12:28:08,892 [DEBUG] Current transaction state - IDLE
2023-12-21 12:28:08,892 [DEBUG] Running transaction 1
2023-12-21 12:28:08,892 [DEBUG] SEND: 0x0 0x1 0x0 0x0 0x0 0x9 0x0 0x10 0x0 0x0 0x0 0x1 0x2 0xff 0xab
2023-12-21 12:28:08,892 [DEBUG] New Transaction state "SENDING"
2023-12-21 12:28:08,892 [DEBUG] Changing transaction state from "SENDING" to "WAITING FOR REPLY"
2023-12-21 12:28:08,933 [DEBUG] Changing transaction state from "WAITING FOR REPLY" to "PROCESSING REPLY"
2023-12-21 12:28:08,933 [DEBUG] RECV: 0x0 0x1 0x0 0x0 0x0 0x6 0x0 0x10 0x0 0x0 0x0 0x1
2023-12-21 12:28:08,933 [DEBUG] Processing: 0x0 0x1 0x0 0x0 0x0 0x6 0x0 0x10 0x0 0x0 0x0 0x1
2023-12-21 12:28:08,934 [DEBUG] Factory Response[WriteMultipleRegistersResponse': 16]
2023-12-21 12:28:08,934 [DEBUG] Adding transaction 1
2023-12-21 12:28:08,934 [DEBUG] Getting transaction 1
2023-12-21 12:28:08,934 [DEBUG] Changing transaction state from "PROCESSING REPLY" to "TRANSACTION_COMPLETE"
2023-12-21 12:28:08,934 [INFO] Successfully wrote -8.5 to PLC register 0 for 127.0.0.1:502
2023-12-21 12:28:08,934 [DEBUG] Current transaction state - TRANSACTION_COMPLETE
2023-12-21 12:28:08,934 [DEBUG] Running transaction 2
2023-12-21 12:28:08,934 [DEBUG] SEND: 0x0 0x2 0x0 0x0 0x0 0x6 0x0 0x3 0x0 0x3 0x0 0x1
2023-12-21 12:28:08,934 [DEBUG] New Transaction state "SENDING"
2023-12-21 12:28:08,934 [DEBUG] Changing transaction state from "SENDING" to "WAITING FOR REPLY"
2023-12-21 12:28:08,979 [DEBUG] Changing transaction state from "WAITING FOR REPLY" to "PROCESSING REPLY"
2023-12-21 12:28:08,979 [DEBUG] RECV: 0x0 0x2 0x0 0x0 0x0 0x5 0x0 0x3 0x2 0x0 0xa
2023-12-21 12:28:08,979 [DEBUG] Processing: 0x0 0x2 0x0 0x0 0x0 0x5 0x0 0x3 0x2 0x0 0xa
2023-12-21 12:28:08,979 [DEBUG] Factory Response[ReadHoldingRegistersResponse': 3]
2023-12-21 12:28:08,980 [DEBUG] Adding transaction 2
2023-12-21 12:28:08,980 [DEBUG] Getting transaction 2
2023-12-21 12:28:08,980 [DEBUG] Changing transaction state from "PROCESSING REPLY" to "TRANSACTION_COMPLETE"
2023-12-21 12:28:08,980 [DEBUG] Current transaction state - TRANSACTION_COMPLETE
2023-12-21 12:28:08,980 [DEBUG] Running transaction 3
2023-12-21 12:28:08,980 [DEBUG] SEND: 0x0 0x3 0x0 0x0 0x0 0x6 0x0 0x3 0x0 0x4 0x0 0x1
2023-12-21 12:28:08,980 [DEBUG] New Transaction state "SENDING"
2023-12-21 12:28:08,981 [DEBUG] Changing transaction state from "SENDING" to "WAITING FOR REPLY"
2023-12-21 12:28:09,025 [DEBUG] Changing transaction state from "WAITING FOR REPLY" to "PROCESSING REPLY"
2023-12-21 12:28:09,026 [DEBUG] RECV: 0x0 0x3 0x0 0x0 0x0 0x5 0x0 0x3 0x2 0x0 0x14
2023-12-21 12:28:09,026 [DEBUG] Processing: 0x0 0x3 0x0 0x0 0x0 0x5 0x0 0x3 0x2 0x0 0x14
2023-12-21 12:28:09,026 [DEBUG] Factory Response[ReadHoldingRegistersResponse': 3]
2023-12-21 12:28:09,027 [DEBUG] Adding transaction 3
2023-12-21 12:28:09,027 [DEBUG] Getting transaction 3
2023-12-21 12:28:09,027 [DEBUG] Changing transaction state from "PROCESSING REPLY" to "TRANSACTION_COMPLETE"
2023-12-21 12:28:09,028 [INFO] TRNData[simulationModel][outputs][x] 20.0
2023-12-21 12:28:09,028 [INFO] TRNinputs: [ 2.07408072e+01  1.00000000e+03  3.80000000e+01  0.00000000e+00
  1.99286850e+01 -8.50000000e+00  1.66666667e-02  1.00000000e+00]
2023-12-21 12:28:09,029 [DEBUG] [380, 0]
2023-12-21 12:28:09,033 [DEBUG] Connection to Modbus server established. Socket ('127.0.0.1', 16551)
2023-12-21 12:28:09,034 [DEBUG] Current transaction state - IDLE
2023-12-21 12:28:09,034 [DEBUG] Running transaction 1
2023-12-21 12:28:09,034 [DEBUG] SEND: 0x0 0x1 0x0 0x0 0x0 0x9 0x0 0x10 0x0 0x0 0x0 0x1 0x2 0x1 0x7c
2023-12-21 12:28:09,035 [DEBUG] New Transaction state "SENDING"
2023-12-21 12:28:09,035 [DEBUG] Changing transaction state from "SENDING" to "WAITING FOR REPLY"
2023-12-21 12:28:09,071 [DEBUG] Changing transaction state from "WAITING FOR REPLY" to "PROCESSING REPLY"
2023-12-21 12:28:09,072 [DEBUG] RECV: 0x0 0x1 0x0 0x0 0x0 0x6 0x0 0x10 0x0 0x0 0x0 0x1
2023-12-21 12:28:09,072 [DEBUG] Processing: 0x0 0x1 0x0 0x0 0x0 0x6 0x0 0x10 0x0 0x0 0x0 0x1
2023-12-21 12:28:09,072 [DEBUG] Factory Response[WriteMultipleRegistersResponse': 16]
2023-12-21 12:28:09,072 [DEBUG] Adding transaction 1
2023-12-21 12:28:09,073 [DEBUG] Getting transaction 1
2023-12-21 12:28:09,073 [DEBUG] Changing transaction state from "PROCESSING REPLY" to "TRANSACTION_COMPLETE"
2023-12-21 12:28:09,073 [INFO] Successfully wrote 38.0 to PLC register 0 for 127.0.0.1:503
2023-12-21 12:28:09,074 [DEBUG] Current transaction state - TRANSACTION_COMPLETE
2023-12-21 12:28:09,074 [DEBUG] Running transaction 2
2023-12-21 12:28:09,074 [DEBUG] SEND: 0x0 0x2 0x0 0x0 0x0 0x9 0x0 0x10 0x0 0x1 0x0 0x1 0x2 0x0 0x0
2023-12-21 12:28:09,074 [DEBUG] New Transaction state "SENDING"
2023-12-21 12:28:09,075 [DEBUG] Changing transaction state from "SENDING" to "WAITING FOR REPLY"
2023-12-21 12:28:09,118 [DEBUG] Changing transaction state from "WAITING FOR REPLY" to "PROCESSING REPLY"
2023-12-21 12:28:09,118 [DEBUG] RECV: 0x0 0x2 0x0 0x0 0x0 0x6 0x0 0x10 0x0 0x1 0x0 0x1
2023-12-21 12:28:09,118 [DEBUG] Processing: 0x0 0x2 0x0 0x0 0x0 0x6 0x0 0x10 0x0 0x1 0x0 0x1
2023-12-21 12:28:09,118 [DEBUG] Factory Response[WriteMultipleRegistersResponse': 16]
2023-12-21 12:28:09,118 [DEBUG] Adding transaction 2
2023-12-21 12:28:09,118 [DEBUG] Getting transaction 2
2023-12-21 12:28:09,118 [DEBUG] Changing transaction state from "PROCESSING REPLY" to "TRANSACTION_COMPLETE"
2023-12-21 12:28:09,118 [INFO] Successfully wrote 0.0 to PLC register 1 for 127.0.0.1:503
2023-12-21 12:28:09,118 [INFO] server_inputs: [38.0, 0.0]
2023-12-21 12:28:10,156 [INFO] TRNinputs: [ 1.95772325e+01  1.00000000e+03  3.80000000e+01  0.00000000e+00
  1.97847055e+01 -8.50000000e+00  3.33333333e-02  1.00000000e+00]
2023-12-21 12:28:10,156 [DEBUG] [65451]
2023-12-21 12:28:10,156 [DEBUG] Current transaction state - TRANSACTION_COMPLETE
2023-12-21 12:28:10,157 [DEBUG] Running transaction 4
2023-12-21 12:28:10,157 [DEBUG] SEND: 0x0 0x4 0x0 0x0 0x0 0x9 0x0 0x10 0x0 0x0 0x0 0x1 0x2 0xff 0xab
2023-12-21 12:28:10,157 [DEBUG] New Transaction state "SENDING"
2023-12-21 12:28:10,157 [DEBUG] Changing transaction state from "SENDING" to "WAITING FOR REPLY"
2023-12-21 12:28:10,192 [DEBUG] Changing transaction state from "WAITING FOR REPLY" to "PROCESSING REPLY"
2023-12-21 12:28:10,192 [DEBUG] RECV: 0x0 0x4 0x0 0x0 0x0 0x6 0x0 0x10 0x0 0x0 0x0 0x1
2023-12-21 12:28:10,192 [DEBUG] Processing: 0x0 0x4 0x0 0x0 0x0 0x6 0x0 0x10 0x0 0x0 0x0 0x1
2023-12-21 12:28:10,192 [DEBUG] Factory Response[WriteMultipleRegistersResponse': 16]
2023-12-21 12:28:10,192 [DEBUG] Adding transaction 4
2023-12-21 12:28:10,192 [DEBUG] Getting transaction 4
2023-12-21 12:28:10,192 [DEBUG] Changing transaction state from "PROCESSING REPLY" to "TRANSACTION_COMPLETE"
2023-12-21 12:28:10,192 [INFO] Successfully wrote -8.5 to PLC register 0 for 127.0.0.1:502
2023-12-21 12:28:10,192 [DEBUG] Current transaction state - TRANSACTION_COMPLETE
2023-12-21 12:28:10,192 [DEBUG] Running transaction 5
2023-12-21 12:28:10,193 [DEBUG] SEND: 0x0 0x5 0x0 0x0 0x0 0x6 0x0 0x3 0x0 0x3 0x0 0x1
2023-12-21 12:28:10,193 [DEBUG] New Transaction state "SENDING"
2023-12-21 12:28:10,193 [DEBUG] Changing transaction state from "SENDING" to "WAITING FOR REPLY"
2023-12-21 12:28:10,240 [DEBUG] Changing transaction state from "WAITING FOR REPLY" to "PROCESSING REPLY"
2023-12-21 12:28:10,240 [DEBUG] RECV: 0x0 0x5 0x0 0x0 0x0 0x5 0x0 0x3 0x2 0x0 0xa
2023-12-21 12:28:10,241 [DEBUG] Processing: 0x0 0x5 0x0 0x0 0x0 0x5 0x0 0x3 0x2 0x0 0xa
2023-12-21 12:28:10,241 [DEBUG] Factory Response[ReadHoldingRegistersResponse': 3]
2023-12-21 12:28:10,241 [DEBUG] Adding transaction 5
2023-12-21 12:28:10,242 [DEBUG] Getting transaction 5
2023-12-21 12:28:10,242 [DEBUG] Changing transaction state from "PROCESSING REPLY" to "TRANSACTION_COMPLETE"
2023-12-21 12:28:10,242 [DEBUG] Current transaction state - TRANSACTION_COMPLETE
2023-12-21 12:28:10,242 [DEBUG] Running transaction 6
2023-12-21 12:28:10,243 [DEBUG] SEND: 0x0 0x6 0x0 0x0 0x0 0x6 0x0 0x3 0x0 0x4 0x0 0x1
2023-12-21 12:28:10,243 [DEBUG] New Transaction state "SENDING"
2023-12-21 12:28:10,243 [DEBUG] Changing transaction state from "SENDING" to "WAITING FOR REPLY"
2023-12-21 12:28:10,286 [DEBUG] Changing transaction state from "WAITING FOR REPLY" to "PROCESSING REPLY"
2023-12-21 12:28:10,286 [DEBUG] RECV: 0x0 0x6 0x0 0x0 0x0 0x5 0x0 0x3 0x2 0x0 0x14
2023-12-21 12:28:10,286 [DEBUG] Processing: 0x0 0x6 0x0 0x0 0x0 0x5 0x0 0x3 0x2 0x0 0x14
2023-12-21 12:28:10,286 [DEBUG] Factory Response[ReadHoldingRegistersResponse': 3]
2023-12-21 12:28:10,286 [DEBUG] Adding transaction 6
2023-12-21 12:28:10,286 [DEBUG] Getting transaction 6
2023-12-21 12:28:10,286 [DEBUG] Changing transaction state from "PROCESSING REPLY" to "TRANSACTION_COMPLETE"
2023-12-21 12:28:10,286 [INFO] TRNData[simulationModel][outputs][x] 20.0
2023-12-21 12:28:10,287 [INFO] TRNinputs: [ 1.95772325e+01  1.00000000e+03  3.80000000e+01  0.00000000e+00
  1.97847055e+01 -8.50000000e+00  3.33333333e-02  1.00000000e+00]
2023-12-21 12:28:10,287 [DEBUG] [380, 0]
2023-12-21 12:28:10,287 [DEBUG] Current transaction state - TRANSACTION_COMPLETE
2023-12-21 12:28:10,287 [DEBUG] Running transaction 3
2023-12-21 12:28:10,287 [DEBUG] SEND: 0x0 0x3 0x0 0x0 0x0 0x9 0x0 0x10 0x0 0x0 0x0 0x1 0x2 0x1 0x7c
2023-12-21 12:28:10,287 [DEBUG] New Transaction state "SENDING"
2023-12-21 12:28:10,287 [DEBUG] Changing transaction state from "SENDING" to "WAITING FOR REPLY"
2023-12-21 12:28:10,333 [DEBUG] Changing transaction state from "WAITING FOR REPLY" to "PROCESSING REPLY"
2023-12-21 12:28:10,333 [DEBUG] RECV: 0x0 0x3 0x0 0x0 0x0 0x6 0x0 0x10 0x0 0x0 0x0 0x1
2023-12-21 12:28:10,333 [DEBUG] Processing: 0x0 0x3 0x0 0x0 0x0 0x6 0x0 0x10 0x0 0x0 0x0 0x1
2023-12-21 12:28:10,333 [DEBUG] Factory Response[WriteMultipleRegistersResponse': 16]
2023-12-21 12:28:10,333 [DEBUG] Adding transaction 3
2023-12-21 12:28:10,334 [DEBUG] Getting transaction 3
2023-12-21 12:28:10,334 [DEBUG] Changing transaction state from "PROCESSING REPLY" to "TRANSACTION_COMPLETE"
2023-12-21 12:28:10,334 [INFO] Successfully wrote 38.0 to PLC register 0 for 127.0.0.1:503
2023-12-21 12:28:10,334 [DEBUG] Current transaction state - TRANSACTION_COMPLETE
2023-12-21 12:28:10,334 [DEBUG] Running transaction 4
2023-12-21 12:28:10,334 [DEBUG] SEND: 0x0 0x4 0x0 0x0 0x0 0x9 0x0 0x10 0x0 0x1 0x0 0x1 0x2 0x0 0x0
2023-12-21 12:28:10,334 [DEBUG] New Transaction state "SENDING"
2023-12-21 12:28:10,334 [DEBUG] Changing transaction state from "SENDING" to "WAITING FOR REPLY"
2023-12-21 12:28:10,380 [DEBUG] Changing transaction state from "WAITING FOR REPLY" to "PROCESSING REPLY"
2023-12-21 12:28:10,381 [DEBUG] RECV: 0x0 0x4 0x0 0x0 0x0 0x6 0x0 0x10 0x0 0x1 0x0 0x1
2023-12-21 12:28:10,381 [DEBUG] Processing: 0x0 0x4 0x0 0x0 0x0 0x6 0x0 0x10 0x0 0x1 0x0 0x1
2023-12-21 12:28:10,381 [DEBUG] Factory Response[WriteMultipleRegistersResponse': 16]
2023-12-21 12:28:10,382 [DEBUG] Adding transaction 4
2023-12-21 12:28:10,382 [DEBUG] Getting transaction 4
2023-12-21 12:28:10,382 [DEBUG] Changing transaction state from "PROCESSING REPLY" to "TRANSACTION_COMPLETE"
2023-12-21 12:28:10,382 [INFO] Successfully wrote 0.0 to PLC register 1 for 127.0.0.1:503
2023-12-21 12:28:10,383 [INFO] server_inputs: [38.0, 0.0]
2023-12-21 12:28:11,413 [INFO] TRNinputs: [ 1.78119198e+01  1.00000000e+03  3.80000000e+01  0.00000000e+00
  1.96423368e+01 -8.50000000e+00  5.00000000e-02  1.00000000e+00]
2023-12-21 12:28:11,414 [DEBUG] [65451]
2023-12-21 12:28:11,414 [DEBUG] Current transaction state - TRANSACTION_COMPLETE
2023-12-21 12:28:11,414 [DEBUG] Running transaction 7
2023-12-21 12:28:11,414 [DEBUG] SEND: 0x0 0x7 0x0 0x0 0x0 0x9 0x0 0x10 0x0 0x0 0x0 0x1 0x2 0xff 0xab
2023-12-21 12:28:11,414 [DEBUG] New Transaction state "SENDING"
2023-12-21 12:28:11,414 [DEBUG] Changing transaction state from "SENDING" to "WAITING FOR REPLY"
2023-12-21 12:28:11,454 [DEBUG] Changing transaction state from "WAITING FOR REPLY" to "PROCESSING REPLY"
2023-12-21 12:28:11,454 [DEBUG] RECV: 0x0 0x7 0x0 0x0 0x0 0x6 0x0 0x10 0x0 0x0 0x0 0x1
2023-12-21 12:28:11,454 [DEBUG] Processing: 0x0 0x7 0x0 0x0 0x0 0x6 0x0 0x10 0x0 0x0 0x0 0x1
2023-12-21 12:28:11,454 [DEBUG] Factory Response[WriteMultipleRegistersResponse': 16]
2023-12-21 12:28:11,454 [DEBUG] Adding transaction 7
2023-12-21 12:28:11,454 [DEBUG] Getting transaction 7
2023-12-21 12:28:11,454 [DEBUG] Changing transaction state from "PROCESSING REPLY" to "TRANSACTION_COMPLETE"
2023-12-21 12:28:11,454 [INFO] Successfully wrote -8.5 to PLC register 0 for 127.0.0.1:502
2023-12-21 12:28:11,454 [DEBUG] Current transaction state - TRANSACTION_COMPLETE
2023-12-21 12:28:11,455 [DEBUG] Running transaction 8
2023-12-21 12:28:11,455 [DEBUG] SEND: 0x0 0x8 0x0 0x0 0x0 0x6 0x0 0x3 0x0 0x3 0x0 0x1
2023-12-21 12:28:11,455 [DEBUG] New Transaction state "SENDING"
2023-12-21 12:28:11,455 [DEBUG] Changing transaction state from "SENDING" to "WAITING FOR REPLY"
2023-12-21 12:28:11,500 [DEBUG] Changing transaction state from "WAITING FOR REPLY" to "PROCESSING REPLY"
2023-12-21 12:28:11,500 [DEBUG] RECV: 0x0 0x8 0x0 0x0 0x0 0x5 0x0 0x3 0x2 0x0 0xa
2023-12-21 12:28:11,500 [DEBUG] Processing: 0x0 0x8 0x0 0x0 0x0 0x5 0x0 0x3 0x2 0x0 0xa
2023-12-21 12:28:11,500 [DEBUG] Factory Response[ReadHoldingRegistersResponse': 3]
2023-12-21 12:28:11,500 [DEBUG] Adding transaction 8
2023-12-21 12:28:11,500 [DEBUG] Getting transaction 8
2023-12-21 12:28:11,500 [DEBUG] Changing transaction state from "PROCESSING REPLY" to "TRANSACTION_COMPLETE"
2023-12-21 12:28:11,500 [DEBUG] Current transaction state - TRANSACTION_COMPLETE
2023-12-21 12:28:11,501 [DEBUG] Running transaction 9
2023-12-21 12:28:11,501 [DEBUG] SEND: 0x0 0x9 0x0 0x0 0x0 0x6 0x0 0x3 0x0 0x4 0x0 0x1
2023-12-21 12:28:11,501 [DEBUG] New Transaction state "SENDING"
2023-12-21 12:28:11,501 [DEBUG] Changing transaction state from "SENDING" to "WAITING FOR REPLY"
2023-12-21 12:28:11,547 [DEBUG] Changing transaction state from "WAITING FOR REPLY" to "PROCESSING REPLY"
2023-12-21 12:28:11,548 [DEBUG] RECV: 0x0 0x9 0x0 0x0 0x0 0x5 0x0 0x3 0x2 0x0 0x14
2023-12-21 12:28:11,548 [DEBUG] Processing: 0x0 0x9 0x0 0x0 0x0 0x5 0x0 0x3 0x2 0x0 0x14
2023-12-21 12:28:11,548 [DEBUG] Factory Response[ReadHoldingRegistersResponse': 3]
2023-12-21 12:28:11,549 [DEBUG] Adding transaction 9
2023-12-21 12:28:11,549 [DEBUG] Getting transaction 9
2023-12-21 12:28:11,549 [DEBUG] Changing transaction state from "PROCESSING REPLY" to "TRANSACTION_COMPLETE"
2023-12-21 12:28:11,549 [INFO] TRNData[simulationModel][outputs][x] 20.0
2023-12-21 12:28:11,551 [INFO] TRNinputs: [ 1.78119198e+01  1.00000000e+03  3.80000000e+01  0.00000000e+00
  1.96423368e+01 -8.50000000e+00  5.00000000e-02  1.00000000e+00]
2023-12-21 12:28:11,551 [DEBUG] [380, 0]
2023-12-21 12:28:11,551 [DEBUG] Current transaction state - TRANSACTION_COMPLETE
2023-12-21 12:28:11,551 [DEBUG] Running transaction 5
2023-12-21 12:28:11,551 [DEBUG] SEND: 0x0 0x5 0x0 0x0 0x0 0x9 0x0 0x10 0x0 0x0 0x0 0x1 0x2 0x1 0x7c
2023-12-21 12:28:11,551 [DEBUG] New Transaction state "SENDING"
2023-12-21 12:28:11,551 [DEBUG] Changing transaction state from "SENDING" to "WAITING FOR REPLY"
2023-12-21 12:28:11,595 [DEBUG] Changing transaction state from "WAITING FOR REPLY" to "PROCESSING REPLY"
2023-12-21 12:28:11,595 [DEBUG] RECV: 0x0 0x5 0x0 0x0 0x0 0x6 0x0 0x10 0x0 0x0 0x0 0x1
2023-12-21 12:28:11,595 [DEBUG] Processing: 0x0 0x5 0x0 0x0 0x0 0x6 0x0 0x10 0x0 0x0 0x0 0x1
2023-12-21 12:28:11,595 [DEBUG] Factory Response[WriteMultipleRegistersResponse': 16]
2023-12-21 12:28:11,595 [DEBUG] Adding transaction 5
2023-12-21 12:28:11,595 [DEBUG] Getting transaction 5
2023-12-21 12:28:11,596 [DEBUG] Changing transaction state from "PROCESSING REPLY" to "TRANSACTION_COMPLETE"
2023-12-21 12:28:11,596 [INFO] Successfully wrote 38.0 to PLC register 0 for 127.0.0.1:503
2023-12-21 12:28:11,596 [DEBUG] Current transaction state - TRANSACTION_COMPLETE
2023-12-21 12:28:11,596 [DEBUG] Running transaction 6
2023-12-21 12:28:11,596 [DEBUG] SEND: 0x0 0x6 0x0 0x0 0x0 0x9 0x0 0x10 0x0 0x1 0x0 0x1 0x2 0x0 0x0
2023-12-21 12:28:11,596 [DEBUG] New Transaction state "SENDING"
2023-12-21 12:28:11,596 [DEBUG] Changing transaction state from "SENDING" to "WAITING FOR REPLY"
2023-12-21 12:28:11,642 [DEBUG] Changing transaction state from "WAITING FOR REPLY" to "PROCESSING REPLY"
2023-12-21 12:28:11,642 [DEBUG] RECV: 0x0 0x6 0x0 0x0 0x0 0x6 0x0 0x10 0x0 0x1 0x0 0x1
2023-12-21 12:28:11,642 [DEBUG] Processing: 0x0 0x6 0x0 0x0 0x0 0x6 0x0 0x10 0x0 0x1 0x0 0x1
2023-12-21 12:28:11,642 [DEBUG] Factory Response[WriteMultipleRegistersResponse': 16]
2023-12-21 12:28:11,643 [DEBUG] Adding transaction 6
2023-12-21 12:28:11,643 [DEBUG] Getting transaction 6
2023-12-21 12:28:11,643 [DEBUG] Changing transaction state from "PROCESSING REPLY" to "TRANSACTION_COMPLETE"
2023-12-21 12:28:11,643 [INFO] Successfully wrote 0.0 to PLC register 1 for 127.0.0.1:503
2023-12-21 12:28:11,643 [INFO] server_inputs: [38.0, 0.0]
2023-12-21 12:28:12,676 [INFO] TRNinputs: [ 1.68522205e+01  1.00000000e+03  3.80000000e+01  0.00000000e+00
  1.95084275e+01 -8.50000000e+00  6.66666667e-02  1.00000000e+00]
2023-12-21 12:28:12,676 [DEBUG] [65451]
2023-12-21 12:28:12,676 [DEBUG] Current transaction state - TRANSACTION_COMPLETE
2023-12-21 12:28:12,676 [DEBUG] Running transaction 10
2023-12-21 12:28:12,676 [DEBUG] SEND: 0x0 0xa 0x0 0x0 0x0 0x9 0x0 0x10 0x0 0x0 0x0 0x1 0x2 0xff 0xab
2023-12-21 12:28:12,676 [DEBUG] New Transaction state "SENDING"
2023-12-21 12:28:12,676 [DEBUG] Changing transaction state from "SENDING" to "WAITING FOR REPLY"
2023-12-21 12:28:12,721 [DEBUG] Changing transaction state from "WAITING FOR REPLY" to "PROCESSING REPLY"
2023-12-21 12:28:12,721 [DEBUG] RECV: 0x0 0xa 0x0 0x0 0x0 0x6 0x0 0x10 0x0 0x0 0x0 0x1
2023-12-21 12:28:12,721 [DEBUG] Processing: 0x0 0xa 0x0 0x0 0x0 0x6 0x0 0x10 0x0 0x0 0x0 0x1
2023-12-21 12:28:12,721 [DEBUG] Factory Response[WriteMultipleRegistersResponse': 16]
2023-12-21 12:28:12,722 [DEBUG] Adding transaction 10
2023-12-21 12:28:12,722 [DEBUG] Getting transaction 10
2023-12-21 12:28:12,722 [DEBUG] Changing transaction state from "PROCESSING REPLY" to "TRANSACTION_COMPLETE"
2023-12-21 12:28:12,722 [INFO] Successfully wrote -8.5 to PLC register 0 for 127.0.0.1:502
2023-12-21 12:28:12,722 [DEBUG] Current transaction state - TRANSACTION_COMPLETE
2023-12-21 12:28:12,722 [DEBUG] Running transaction 11
2023-12-21 12:28:12,722 [DEBUG] SEND: 0x0 0xb 0x0 0x0 0x0 0x6 0x0 0x3 0x0 0x3 0x0 0x1
2023-12-21 12:28:12,722 [DEBUG] New Transaction state "SENDING"
2023-12-21 12:28:12,722 [DEBUG] Changing transaction state from "SENDING" to "WAITING FOR REPLY"
2023-12-21 12:28:12,767 [DEBUG] Changing transaction state from "WAITING FOR REPLY" to "PROCESSING REPLY"
2023-12-21 12:28:12,767 [DEBUG] RECV: 0x0 0xb 0x0 0x0 0x0 0x5 0x0 0x3 0x2 0x0 0xa
2023-12-21 12:28:12,767 [DEBUG] Processing: 0x0 0xb 0x0 0x0 0x0 0x5 0x0 0x3 0x2 0x0 0xa
2023-12-21 12:28:12,767 [DEBUG] Factory Response[ReadHoldingRegistersResponse': 3]
2023-12-21 12:28:12,767 [DEBUG] Adding transaction 11
2023-12-21 12:28:12,767 [DEBUG] Getting transaction 11
2023-12-21 12:28:12,768 [DEBUG] Changing transaction state from "PROCESSING REPLY" to "TRANSACTION_COMPLETE"
2023-12-21 12:28:12,768 [DEBUG] Current transaction state - TRANSACTION_COMPLETE
2023-12-21 12:28:12,768 [DEBUG] Running transaction 12
2023-12-21 12:28:12,768 [DEBUG] SEND: 0x0 0xc 0x0 0x0 0x0 0x6 0x0 0x3 0x0 0x4 0x0 0x1
2023-12-21 12:28:12,768 [DEBUG] New Transaction state "SENDING"
2023-12-21 12:28:12,768 [DEBUG] Changing transaction state from "SENDING" to "WAITING FOR REPLY"
2023-12-21 12:28:12,814 [DEBUG] Changing transaction state from "WAITING FOR REPLY" to "PROCESSING REPLY"
2023-12-21 12:28:12,814 [DEBUG] RECV: 0x0 0xc 0x0 0x0 0x0 0x5 0x0 0x3 0x2 0x0 0x14
2023-12-21 12:28:12,814 [DEBUG] Processing: 0x0 0xc 0x0 0x0 0x0 0x5 0x0 0x3 0x2 0x0 0x14
2023-12-21 12:28:12,814 [DEBUG] Factory Response[ReadHoldingRegistersResponse': 3]
2023-12-21 12:28:12,815 [DEBUG] Adding transaction 12
2023-12-21 12:28:12,815 [DEBUG] Getting transaction 12
2023-12-21 12:28:12,815 [DEBUG] Changing transaction state from "PROCESSING REPLY" to "TRANSACTION_COMPLETE"
2023-12-21 12:28:12,815 [INFO] TRNData[simulationModel][outputs][x] 20.0
2023-12-21 12:28:12,815 [INFO] TRNinputs: [ 1.68522205e+01  1.00000000e+03  3.80000000e+01  0.00000000e+00
  1.95084275e+01 -8.50000000e+00  6.66666667e-02  1.00000000e+00]
2023-12-21 12:28:12,815 [DEBUG] [380, 0]
2023-12-21 12:28:12,815 [DEBUG] Current transaction state - TRANSACTION_COMPLETE
2023-12-21 12:28:12,815 [DEBUG] Running transaction 7
2023-12-21 12:28:12,815 [DEBUG] SEND: 0x0 0x7 0x0 0x0 0x0 0x9 0x0 0x10 0x0 0x0 0x0 0x1 0x2 0x1 0x7c
2023-12-21 12:28:12,816 [DEBUG] New Transaction state "SENDING"
2023-12-21 12:28:12,816 [DEBUG] Changing transaction state from "SENDING" to "WAITING FOR REPLY"
2023-12-21 12:28:12,862 [DEBUG] Changing transaction state from "WAITING FOR REPLY" to "PROCESSING REPLY"
2023-12-21 12:28:12,863 [DEBUG] RECV: 0x0 0x7 0x0 0x0 0x0 0x6 0x0 0x10 0x0 0x0 0x0 0x1
2023-12-21 12:28:12,863 [DEBUG] Processing: 0x0 0x7 0x0 0x0 0x0 0x6 0x0 0x10 0x0 0x0 0x0 0x1
2023-12-21 12:28:12,863 [DEBUG] Factory Response[WriteMultipleRegistersResponse': 16]
2023-12-21 12:28:12,863 [DEBUG] Adding transaction 7
2023-12-21 12:28:12,863 [DEBUG] Getting transaction 7
2023-12-21 12:28:12,863 [DEBUG] Changing transaction state from "PROCESSING REPLY" to "TRANSACTION_COMPLETE"
2023-12-21 12:28:12,863 [INFO] Successfully wrote 38.0 to PLC register 0 for 127.0.0.1:503
2023-12-21 12:28:12,863 [DEBUG] Current transaction state - TRANSACTION_COMPLETE
2023-12-21 12:28:12,863 [DEBUG] Running transaction 8
2023-12-21 12:28:12,864 [DEBUG] SEND: 0x0 0x8 0x0 0x0 0x0 0x9 0x0 0x10 0x0 0x1 0x0 0x1 0x2 0x0 0x0
2023-12-21 12:28:12,864 [DEBUG] New Transaction state "SENDING"
2023-12-21 12:28:12,864 [DEBUG] Changing transaction state from "SENDING" to "WAITING FOR REPLY"
2023-12-21 12:28:12,909 [DEBUG] Changing transaction state from "WAITING FOR REPLY" to "PROCESSING REPLY"
2023-12-21 12:28:12,909 [DEBUG] RECV: 0x0 0x8 0x0 0x0 0x0 0x6 0x0 0x10 0x0 0x1 0x0 0x1
2023-12-21 12:28:12,909 [DEBUG] Processing: 0x0 0x8 0x0 0x0 0x0 0x6 0x0 0x10 0x0 0x1 0x0 0x1
2023-12-21 12:28:12,909 [DEBUG] Factory Response[WriteMultipleRegistersResponse': 16]
2023-12-21 12:28:12,909 [DEBUG] Adding transaction 8
2023-12-21 12:28:12,909 [DEBUG] Getting transaction 8
2023-12-21 12:28:12,910 [DEBUG] Changing transaction state from "PROCESSING REPLY" to "TRANSACTION_COMPLETE"
2023-12-21 12:28:12,910 [INFO] Successfully wrote 0.0 to PLC register 1 for 127.0.0.1:503
2023-12-21 12:28:12,910 [INFO] server_inputs: [38.0, 0.0]
2023-12-21 12:28:13,954 [INFO] TRNinputs: [ 1.61184250e+01  1.00000000e+03  3.80000000e+01  0.00000000e+00
  1.93832053e+01 -8.50000000e+00  8.33333333e-02  1.00000000e+00]
2023-12-21 12:28:13,954 [DEBUG] [65451]
2023-12-21 12:28:13,955 [DEBUG] Current transaction state - TRANSACTION_COMPLETE
2023-12-21 12:28:13,955 [DEBUG] Running transaction 13
2023-12-21 12:28:13,955 [DEBUG] SEND: 0x0 0xd 0x0 0x0 0x0 0x9 0x0 0x10 0x0 0x0 0x0 0x1 0x2 0xff 0xab
2023-12-21 12:28:13,955 [DEBUG] New Transaction state "SENDING"
2023-12-21 12:28:13,955 [DEBUG] Changing transaction state from "SENDING" to "WAITING FOR REPLY"
2023-12-21 12:28:13,994 [DEBUG] Changing transaction state from "WAITING FOR REPLY" to "PROCESSING REPLY"
2023-12-21 12:28:13,994 [DEBUG] RECV: 0x0 0xd 0x0 0x0 0x0 0x6 0x0 0x10 0x0 0x0 0x0 0x1
2023-12-21 12:28:13,994 [DEBUG] Processing: 0x0 0xd 0x0 0x0 0x0 0x6 0x0 0x10 0x0 0x0 0x0 0x1
2023-12-21 12:28:13,994 [DEBUG] Factory Response[WriteMultipleRegistersResponse': 16]
2023-12-21 12:28:13,994 [DEBUG] Adding transaction 13
2023-12-21 12:28:13,995 [DEBUG] Getting transaction 13
2023-12-21 12:28:13,995 [DEBUG] Changing transaction state from "PROCESSING REPLY" to "TRANSACTION_COMPLETE"
2023-12-21 12:28:13,995 [INFO] Successfully wrote -8.5 to PLC register 0 for 127.0.0.1:502
2023-12-21 12:28:13,995 [DEBUG] Current transaction state - TRANSACTION_COMPLETE
2023-12-21 12:28:13,995 [DEBUG] Running transaction 14
2023-12-21 12:28:13,995 [DEBUG] SEND: 0x0 0xe 0x0 0x0 0x0 0x6 0x0 0x3 0x0 0x3 0x0 0x1
2023-12-21 12:28:13,995 [DEBUG] New Transaction state "SENDING"
2023-12-21 12:28:13,995 [DEBUG] Changing transaction state from "SENDING" to "WAITING FOR REPLY"
2023-12-21 12:28:14,041 [DEBUG] Changing transaction state from "WAITING FOR REPLY" to "PROCESSING REPLY"
2023-12-21 12:28:14,041 [DEBUG] RECV: 0x0 0xe 0x0 0x0 0x0 0x5 0x0 0x3 0x2 0x0 0xa
2023-12-21 12:28:14,041 [DEBUG] Processing: 0x0 0xe 0x0 0x0 0x0 0x5 0x0 0x3 0x2 0x0 0xa
2023-12-21 12:28:14,041 [DEBUG] Factory Response[ReadHoldingRegistersResponse': 3]
2023-12-21 12:28:14,041 [DEBUG] Adding transaction 14
2023-12-21 12:28:14,041 [DEBUG] Getting transaction 14
2023-12-21 12:28:14,041 [DEBUG] Changing transaction state from "PROCESSING REPLY" to "TRANSACTION_COMPLETE"
2023-12-21 12:28:14,041 [DEBUG] Current transaction state - TRANSACTION_COMPLETE
2023-12-21 12:28:14,041 [DEBUG] Running transaction 15
2023-12-21 12:28:14,041 [DEBUG] SEND: 0x0 0xf 0x0 0x0 0x0 0x6 0x0 0x3 0x0 0x4 0x0 0x1
2023-12-21 12:28:14,041 [DEBUG] New Transaction state "SENDING"
2023-12-21 12:28:14,042 [DEBUG] Changing transaction state from "SENDING" to "WAITING FOR REPLY"
2023-12-21 12:28:14,088 [DEBUG] Changing transaction state from "WAITING FOR REPLY" to "PROCESSING REPLY"
2023-12-21 12:28:14,088 [DEBUG] RECV: 0x0 0xf 0x0 0x0 0x0 0x5 0x0 0x3 0x2 0x0 0x14
2023-12-21 12:28:14,088 [DEBUG] Processing: 0x0 0xf 0x0 0x0 0x0 0x5 0x0 0x3 0x2 0x0 0x14
2023-12-21 12:28:14,088 [DEBUG] Factory Response[ReadHoldingRegistersResponse': 3]
2023-12-21 12:28:14,088 [DEBUG] Adding transaction 15
2023-12-21 12:28:14,089 [DEBUG] Getting transaction 15
2023-12-21 12:28:14,089 [DEBUG] Changing transaction state from "PROCESSING REPLY" to "TRANSACTION_COMPLETE"
2023-12-21 12:28:14,089 [INFO] TRNData[simulationModel][outputs][x] 20.0
2023-12-21 12:28:14,089 [INFO] TRNinputs: [ 1.61184250e+01  1.00000000e+03  3.80000000e+01  0.00000000e+00
  1.93832053e+01 -8.50000000e+00  8.33333333e-02  1.00000000e+00]
2023-12-21 12:28:14,089 [DEBUG] [380, 0]
2023-12-21 12:28:14,090 [DEBUG] Current transaction state - TRANSACTION_COMPLETE
2023-12-21 12:28:14,090 [DEBUG] Running transaction 9
2023-12-21 12:28:14,090 [DEBUG] SEND: 0x0 0x9 0x0 0x0 0x0 0x9 0x0 0x10 0x0 0x0 0x0 0x1 0x2 0x1 0x7c
2023-12-21 12:28:14,090 [DEBUG] New Transaction state "SENDING"
2023-12-21 12:28:14,090 [DEBUG] Changing transaction state from "SENDING" to "WAITING FOR REPLY"
2023-12-21 12:28:14,133 [DEBUG] Changing transaction state from "WAITING FOR REPLY" to "PROCESSING REPLY"
2023-12-21 12:28:14,135 [DEBUG] RECV: 0x0 0x9 0x0 0x0 0x0 0x6 0x0 0x10 0x0 0x0 0x0 0x1
2023-12-21 12:28:14,136 [DEBUG] Processing: 0x0 0x9 0x0 0x0 0x0 0x6 0x0 0x10 0x0 0x0 0x0 0x1
2023-12-21 12:28:14,136 [DEBUG] Factory Response[WriteMultipleRegistersResponse': 16]
2023-12-21 12:28:14,136 [DEBUG] Adding transaction 9
2023-12-21 12:28:14,136 [DEBUG] Getting transaction 9
2023-12-21 12:28:14,136 [DEBUG] Changing transaction state from "PROCESSING REPLY" to "TRANSACTION_COMPLETE"
2023-12-21 12:28:14,137 [INFO] Successfully wrote 38.0 to PLC register 0 for 127.0.0.1:503
2023-12-21 12:28:14,137 [DEBUG] Current transaction state - TRANSACTION_COMPLETE
2023-12-21 12:28:14,137 [DEBUG] Running transaction 10
2023-12-21 12:28:14,137 [DEBUG] SEND: 0x0 0xa 0x0 0x0 0x0 0x9 0x0 0x10 0x0 0x1 0x0 0x1 0x2 0x0 0x0
2023-12-21 12:28:14,137 [DEBUG] New Transaction state "SENDING"
2023-12-21 12:28:14,138 [DEBUG] Changing transaction state from "SENDING" to "WAITING FOR REPLY"
2023-12-21 12:28:14,179 [DEBUG] Changing transaction state from "WAITING FOR REPLY" to "PROCESSING REPLY"
2023-12-21 12:28:14,179 [DEBUG] RECV: 0x0 0xa 0x0 0x0 0x0 0x6 0x0 0x10 0x0 0x1 0x0 0x1
2023-12-21 12:28:14,179 [DEBUG] Processing: 0x0 0xa 0x0 0x0 0x0 0x6 0x0 0x10 0x0 0x1 0x0 0x1
2023-12-21 12:28:14,179 [DEBUG] Factory Response[WriteMultipleRegistersResponse': 16]
2023-12-21 12:28:14,179 [DEBUG] Adding transaction 10
2023-12-21 12:28:14,180 [DEBUG] Getting transaction 10
2023-12-21 12:28:14,180 [DEBUG] Changing transaction state from "PROCESSING REPLY" to "TRANSACTION_COMPLETE"
2023-12-21 12:28:14,180 [INFO] Successfully wrote 0.0 to PLC register 1 for 127.0.0.1:503
2023-12-21 12:28:14,180 [INFO] server_inputs: [38.0, 0.0]
2023-12-21 12:28:15,217 [INFO] TRNinputs: [ 1.56117992e+01  1.00000000e+03  3.80000000e+01  0.00000000e+00
  1.92660252e+01 -8.50000000e+00  1.00000000e-01  1.00000000e+00]
2023-12-21 12:28:15,217 [DEBUG] [65451]
2023-12-21 12:28:15,217 [DEBUG] Current transaction state - TRANSACTION_COMPLETE
2023-12-21 12:28:15,217 [DEBUG] Running transaction 16
2023-12-21 12:28:15,217 [DEBUG] SEND: 0x0 0x10 0x0 0x0 0x0 0x9 0x0 0x10 0x0 0x0 0x0 0x1 0x2 0xff 0xab
2023-12-21 12:28:15,218 [DEBUG] New Transaction state "SENDING"
2023-12-21 12:28:15,218 [DEBUG] Changing transaction state from "SENDING" to "WAITING FOR REPLY"
2023-12-21 12:28:15,255 [DEBUG] Changing transaction state from "WAITING FOR REPLY" to "PROCESSING REPLY"
2023-12-21 12:28:15,255 [DEBUG] RECV: 0x0 0x10 0x0 0x0 0x0 0x6 0x0 0x10 0x0 0x0 0x0 0x1
2023-12-21 12:28:15,255 [DEBUG] Processing: 0x0 0x10 0x0 0x0 0x0 0x6 0x0 0x10 0x0 0x0 0x0 0x1
2023-12-21 12:28:15,255 [DEBUG] Factory Response[WriteMultipleRegistersResponse': 16]
2023-12-21 12:28:15,256 [DEBUG] Adding transaction 16
2023-12-21 12:28:15,256 [DEBUG] Getting transaction 16
2023-12-21 12:28:15,256 [DEBUG] Changing transaction state from "PROCESSING REPLY" to "TRANSACTION_COMPLETE"
2023-12-21 12:28:15,256 [INFO] Successfully wrote -8.5 to PLC register 0 for 127.0.0.1:502
2023-12-21 12:28:15,256 [DEBUG] Current transaction state - TRANSACTION_COMPLETE
2023-12-21 12:28:15,256 [DEBUG] Running transaction 17
2023-12-21 12:28:15,256 [DEBUG] SEND: 0x0 0x11 0x0 0x0 0x0 0x6 0x0 0x3 0x0 0x3 0x0 0x1
2023-12-21 12:28:15,256 [DEBUG] New Transaction state "SENDING"
2023-12-21 12:28:15,256 [DEBUG] Changing transaction state from "SENDING" to "WAITING FOR REPLY"
2023-12-21 12:28:15,302 [DEBUG] Changing transaction state from "WAITING FOR REPLY" to "PROCESSING REPLY"
2023-12-21 12:28:15,302 [DEBUG] RECV: 0x0 0x11 0x0 0x0 0x0 0x5 0x0 0x3 0x2 0x0 0xa
2023-12-21 12:28:15,303 [DEBUG] Processing: 0x0 0x11 0x0 0x0 0x0 0x5 0x0 0x3 0x2 0x0 0xa
2023-12-21 12:28:15,303 [DEBUG] Factory Response[ReadHoldingRegistersResponse': 3]
2023-12-21 12:28:15,303 [DEBUG] Adding transaction 17
2023-12-21 12:28:15,303 [DEBUG] Getting transaction 17
2023-12-21 12:28:15,303 [DEBUG] Changing transaction state from "PROCESSING REPLY" to "TRANSACTION_COMPLETE"
2023-12-21 12:28:15,303 [DEBUG] Current transaction state - TRANSACTION_COMPLETE
2023-12-21 12:28:15,303 [DEBUG] Running transaction 18
2023-12-21 12:28:15,303 [DEBUG] SEND: 0x0 0x12 0x0 0x0 0x0 0x6 0x0 0x3 0x0 0x4 0x0 0x1
2023-12-21 12:28:15,303 [DEBUG] New Transaction state "SENDING"
2023-12-21 12:28:15,304 [DEBUG] Changing transaction state from "SENDING" to "WAITING FOR REPLY"
2023-12-21 12:28:15,349 [DEBUG] Changing transaction state from "WAITING FOR REPLY" to "PROCESSING REPLY"
2023-12-21 12:28:15,349 [DEBUG] RECV: 0x0 0x12 0x0 0x0 0x0 0x5 0x0 0x3 0x2 0x0 0x14
2023-12-21 12:28:15,349 [DEBUG] Processing: 0x0 0x12 0x0 0x0 0x0 0x5 0x0 0x3 0x2 0x0 0x14
2023-12-21 12:28:15,349 [DEBUG] Factory Response[ReadHoldingRegistersResponse': 3]
2023-12-21 12:28:15,349 [DEBUG] Adding transaction 18
2023-12-21 12:28:15,350 [DEBUG] Getting transaction 18
2023-12-21 12:28:15,350 [DEBUG] Changing transaction state from "PROCESSING REPLY" to "TRANSACTION_COMPLETE"
2023-12-21 12:28:15,350 [INFO] TRNData[simulationModel][outputs][x] 20.0
2023-12-21 12:28:15,350 [INFO] TRNinputs: [ 1.56117992e+01  1.00000000e+03  3.80000000e+01  0.00000000e+00
  1.92660252e+01 -8.50000000e+00  1.00000000e-01  1.00000000e+00]
2023-12-21 12:28:15,350 [DEBUG] [380, 0]
2023-12-21 12:28:15,350 [DEBUG] Current transaction state - TRANSACTION_COMPLETE
2023-12-21 12:28:15,350 [DEBUG] Running transaction 11
2023-12-21 12:28:15,350 [DEBUG] SEND: 0x0 0xb 0x0 0x0 0x0 0x9 0x0 0x10 0x0 0x0 0x0 0x1 0x2 0x1 0x7c
2023-12-21 12:28:15,350 [DEBUG] New Transaction state "SENDING"
2023-12-21 12:28:15,350 [DEBUG] Changing transaction state from "SENDING" to "WAITING FOR REPLY"
2023-12-21 12:28:15,395 [DEBUG] Changing transaction state from "WAITING FOR REPLY" to "PROCESSING REPLY"
2023-12-21 12:28:15,395 [DEBUG] RECV: 0x0 0xb 0x0 0x0 0x0 0x6 0x0 0x10 0x0 0x0 0x0 0x1
2023-12-21 12:28:15,395 [DEBUG] Processing: 0x0 0xb 0x0 0x0 0x0 0x6 0x0 0x10 0x0 0x0 0x0 0x1
2023-12-21 12:28:15,395 [DEBUG] Factory Response[WriteMultipleRegistersResponse': 16]
2023-12-21 12:28:15,395 [DEBUG] Adding transaction 11
2023-12-21 12:28:15,395 [DEBUG] Getting transaction 11
2023-12-21 12:28:15,396 [DEBUG] Changing transaction state from "PROCESSING REPLY" to "TRANSACTION_COMPLETE"
2023-12-21 12:28:15,396 [INFO] Successfully wrote 38.0 to PLC register 0 for 127.0.0.1:503
2023-12-21 12:28:15,396 [DEBUG] Current transaction state - TRANSACTION_COMPLETE
2023-12-21 12:28:15,396 [DEBUG] Running transaction 12
2023-12-21 12:28:15,396 [DEBUG] SEND: 0x0 0xc 0x0 0x0 0x0 0x9 0x0 0x10 0x0 0x1 0x0 0x1 0x2 0x0 0x0
2023-12-21 12:28:15,396 [DEBUG] New Transaction state "SENDING"
2023-12-21 12:28:15,396 [DEBUG] Changing transaction state from "SENDING" to "WAITING FOR REPLY"
2023-12-21 12:28:15,442 [DEBUG] Changing transaction state from "WAITING FOR REPLY" to "PROCESSING REPLY"
2023-12-21 12:28:15,442 [DEBUG] RECV: 0x0 0xc 0x0 0x0 0x0 0x6 0x0 0x10 0x0 0x1 0x0 0x1
2023-12-21 12:28:15,442 [DEBUG] Processing: 0x0 0xc 0x0 0x0 0x0 0x6 0x0 0x10 0x0 0x1 0x0 0x1
2023-12-21 12:28:15,442 [DEBUG] Factory Response[WriteMultipleRegistersResponse': 16]
2023-12-21 12:28:15,442 [DEBUG] Adding transaction 12
2023-12-21 12:28:15,442 [DEBUG] Getting transaction 12
2023-12-21 12:28:15,443 [DEBUG] Changing transaction state from "PROCESSING REPLY" to "TRANSACTION_COMPLETE"
2023-12-21 12:28:15,443 [INFO] Successfully wrote 0.0 to PLC register 1 for 127.0.0.1:503
2023-12-21 12:28:15,443 [INFO] server_inputs: [38.0, 0.0]
2023-12-21 12:28:16,462 [INFO] TRNinputs: [ 1.52189496e+01  1.00000000e+03  3.80000000e+01  0.00000000e+00
  1.91565819e+01 -8.50000000e+00  1.16666667e-01  1.00000000e+00]
2023-12-21 12:28:16,462 [DEBUG] [65451]
2023-12-21 12:28:16,462 [DEBUG] Current transaction state - TRANSACTION_COMPLETE
2023-12-21 12:28:16,462 [DEBUG] Running transaction 19
2023-12-21 12:28:16,462 [DEBUG] SEND: 0x0 0x13 0x0 0x0 0x0 0x9 0x0 0x10 0x0 0x0 0x0 0x1 0x2 0xff 0xab
2023-12-21 12:28:16,462 [DEBUG] New Transaction state "SENDING"
2023-12-21 12:28:16,463 [DEBUG] Changing transaction state from "SENDING" to "WAITING FOR REPLY"
2023-12-21 12:28:16,523 [DEBUG] Changing transaction state from "WAITING FOR REPLY" to "PROCESSING REPLY"
2023-12-21 12:28:16,524 [DEBUG] RECV: 0x0 0x13 0x0 0x0 0x0 0x6 0x0 0x10 0x0 0x0 0x0 0x1
2023-12-21 12:28:16,524 [DEBUG] Processing: 0x0 0x13 0x0 0x0 0x0 0x6 0x0 0x10 0x0 0x0 0x0 0x1
2023-12-21 12:28:16,524 [DEBUG] Factory Response[WriteMultipleRegistersResponse': 16]
2023-12-21 12:28:16,524 [DEBUG] Adding transaction 19
2023-12-21 12:28:16,524 [DEBUG] Getting transaction 19
2023-12-21 12:28:16,524 [DEBUG] Changing transaction state from "PROCESSING REPLY" to "TRANSACTION_COMPLETE"
2023-12-21 12:28:16,524 [INFO] Successfully wrote -8.500000000000728 to PLC register 0 for 127.0.0.1:502
2023-12-21 12:28:16,524 [DEBUG] Current transaction state - TRANSACTION_COMPLETE
2023-12-21 12:28:16,524 [DEBUG] Running transaction 20
2023-12-21 12:28:16,524 [DEBUG] SEND: 0x0 0x14 0x0 0x0 0x0 0x6 0x0 0x3 0x0 0x3 0x0 0x1
2023-12-21 12:28:16,525 [DEBUG] New Transaction state "SENDING"
2023-12-21 12:28:16,525 [DEBUG] Changing transaction state from "SENDING" to "WAITING FOR REPLY"
2023-12-21 12:28:16,571 [DEBUG] Changing transaction state from "WAITING FOR REPLY" to "PROCESSING REPLY"
2023-12-21 12:28:16,571 [DEBUG] RECV: 0x0 0x14 0x0 0x0 0x0 0x5 0x0 0x3 0x2 0x0 0xa
2023-12-21 12:28:16,572 [DEBUG] Processing: 0x0 0x14 0x0 0x0 0x0 0x5 0x0 0x3 0x2 0x0 0xa
2023-12-21 12:28:16,572 [DEBUG] Factory Response[ReadHoldingRegistersResponse': 3]
2023-12-21 12:28:16,572 [DEBUG] Adding transaction 20
2023-12-21 12:28:16,572 [DEBUG] Getting transaction 20
2023-12-21 12:28:16,572 [DEBUG] Changing transaction state from "PROCESSING REPLY" to "TRANSACTION_COMPLETE"
2023-12-21 12:28:16,572 [DEBUG] Current transaction state - TRANSACTION_COMPLETE
2023-12-21 12:28:16,572 [DEBUG] Running transaction 21
2023-12-21 12:28:16,572 [DEBUG] SEND: 0x0 0x15 0x0 0x0 0x0 0x6 0x0 0x3 0x0 0x4 0x0 0x1
2023-12-21 12:28:16,572 [DEBUG] New Transaction state "SENDING"
2023-12-21 12:28:16,572 [DEBUG] Changing transaction state from "SENDING" to "WAITING FOR REPLY"
2023-12-21 12:28:16,618 [DEBUG] Changing transaction state from "WAITING FOR REPLY" to "PROCESSING REPLY"
2023-12-21 12:28:16,618 [DEBUG] RECV: 0x0 0x15 0x0 0x0 0x0 0x5 0x0 0x3 0x2 0x0 0x14
2023-12-21 12:28:16,618 [DEBUG] Processing: 0x0 0x15 0x0 0x0 0x0 0x5 0x0 0x3 0x2 0x0 0x14
2023-12-21 12:28:16,618 [DEBUG] Factory Response[ReadHoldingRegistersResponse': 3]
2023-12-21 12:28:16,618 [DEBUG] Adding transaction 21
2023-12-21 12:28:16,618 [DEBUG] Getting transaction 21
2023-12-21 12:28:16,618 [DEBUG] Changing transaction state from "PROCESSING REPLY" to "TRANSACTION_COMPLETE"
2023-12-21 12:28:16,618 [INFO] TRNData[simulationModel][outputs][x] 20.0
2023-12-21 12:28:16,619 [INFO] TRNinputs: [ 1.52189496e+01  1.00000000e+03  3.80000000e+01  0.00000000e+00
  1.91565819e+01 -8.50000000e+00  1.16666667e-01  1.00000000e+00]
2023-12-21 12:28:16,619 [DEBUG] [380, 0]
2023-12-21 12:28:16,619 [DEBUG] Current transaction state - TRANSACTION_COMPLETE
2023-12-21 12:28:16,619 [DEBUG] Running transaction 13
2023-12-21 12:28:16,619 [DEBUG] SEND: 0x0 0xd 0x0 0x0 0x0 0x9 0x0 0x10 0x0 0x0 0x0 0x1 0x2 0x1 0x7c
2023-12-21 12:28:16,619 [DEBUG] New Transaction state "SENDING"
2023-12-21 12:28:16,619 [DEBUG] Changing transaction state from "SENDING" to "WAITING FOR REPLY"
2023-12-21 12:28:16,664 [DEBUG] Changing transaction state from "WAITING FOR REPLY" to "PROCESSING REPLY"
2023-12-21 12:28:16,664 [DEBUG] RECV: 0x0 0xd 0x0 0x0 0x0 0x6 0x0 0x10 0x0 0x0 0x0 0x1
2023-12-21 12:28:16,665 [DEBUG] Processing: 0x0 0xd 0x0 0x0 0x0 0x6 0x0 0x10 0x0 0x0 0x0 0x1
2023-12-21 12:28:16,665 [DEBUG] Factory Response[WriteMultipleRegistersResponse': 16]
2023-12-21 12:28:16,665 [DEBUG] Adding transaction 13
2023-12-21 12:28:16,665 [DEBUG] Getting transaction 13
2023-12-21 12:28:16,665 [DEBUG] Changing transaction state from "PROCESSING REPLY" to "TRANSACTION_COMPLETE"
2023-12-21 12:28:16,665 [INFO] Successfully wrote 38.0 to PLC register 0 for 127.0.0.1:503
2023-12-21 12:28:16,666 [DEBUG] Current transaction state - TRANSACTION_COMPLETE
2023-12-21 12:28:16,666 [DEBUG] Running transaction 14
2023-12-21 12:28:16,666 [DEBUG] SEND: 0x0 0xe 0x0 0x0 0x0 0x9 0x0 0x10 0x0 0x1 0x0 0x1 0x2 0x0 0x0
2023-12-21 12:28:16,666 [DEBUG] New Transaction state "SENDING"
2023-12-21 12:28:16,666 [DEBUG] Changing transaction state from "SENDING" to "WAITING FOR REPLY"
2023-12-21 12:28:16,711 [DEBUG] Changing transaction state from "WAITING FOR REPLY" to "PROCESSING REPLY"
2023-12-21 12:28:16,711 [DEBUG] RECV: 0x0 0xe 0x0 0x0 0x0 0x6 0x0 0x10 0x0 0x1 0x0 0x1
2023-12-21 12:28:16,711 [DEBUG] Processing: 0x0 0xe 0x0 0x0 0x0 0x6 0x0 0x10 0x0 0x1 0x0 0x1
2023-12-21 12:28:16,711 [DEBUG] Factory Response[WriteMultipleRegistersResponse': 16]
2023-12-21 12:28:16,711 [DEBUG] Adding transaction 14
2023-12-21 12:28:16,711 [DEBUG] Getting transaction 14
2023-12-21 12:28:16,711 [DEBUG] Changing transaction state from "PROCESSING REPLY" to "TRANSACTION_COMPLETE"
2023-12-21 12:28:16,712 [INFO] Successfully wrote 0.0 to PLC register 1 for 127.0.0.1:503
2023-12-21 12:28:16,712 [INFO] server_inputs: [38.0, 0.0]
2023-12-21 12:28:17,745 [INFO] TRNinputs: [ 1.49519841e+01  1.00000000e+03  3.80000000e+01  0.00000000e+00
  1.90539486e+01 -8.55000000e+00  1.33333333e-01  1.00000000e+00]
2023-12-21 12:28:17,745 [DEBUG] [65451]
2023-12-21 12:28:17,745 [DEBUG] Current transaction state - TRANSACTION_COMPLETE
2023-12-21 12:28:17,745 [DEBUG] Running transaction 22
2023-12-21 12:28:17,745 [DEBUG] SEND: 0x0 0x16 0x0 0x0 0x0 0x9 0x0 0x10 0x0 0x0 0x0 0x1 0x2 0xff 0xab
2023-12-21 12:28:17,745 [DEBUG] New Transaction state "SENDING"
2023-12-21 12:28:17,745 [DEBUG] Changing transaction state from "SENDING" to "WAITING FOR REPLY"
2023-12-21 12:28:17,786 [DEBUG] Changing transaction state from "WAITING FOR REPLY" to "PROCESSING REPLY"
2023-12-21 12:28:17,786 [DEBUG] RECV: 0x0 0x16 0x0 0x0 0x0 0x6 0x0 0x10 0x0 0x0 0x0 0x1
2023-12-21 12:28:17,786 [DEBUG] Processing: 0x0 0x16 0x0 0x0 0x0 0x6 0x0 0x10 0x0 0x0 0x0 0x1
2023-12-21 12:28:17,786 [DEBUG] Factory Response[WriteMultipleRegistersResponse': 16]
2023-12-21 12:28:17,786 [DEBUG] Adding transaction 22
2023-12-21 12:28:17,786 [DEBUG] Getting transaction 22
2023-12-21 12:28:17,786 [DEBUG] Changing transaction state from "PROCESSING REPLY" to "TRANSACTION_COMPLETE"
2023-12-21 12:28:17,786 [INFO] Successfully wrote -8.549999999999363 to PLC register 0 for 127.0.0.1:502
2023-12-21 12:28:17,786 [DEBUG] Current transaction state - TRANSACTION_COMPLETE
2023-12-21 12:28:17,786 [DEBUG] Running transaction 23
2023-12-21 12:28:17,787 [DEBUG] SEND: 0x0 0x17 0x0 0x0 0x0 0x6 0x0 0x3 0x0 0x3 0x0 0x1
2023-12-21 12:28:17,787 [DEBUG] New Transaction state "SENDING"
2023-12-21 12:28:17,787 [DEBUG] Changing transaction state from "SENDING" to "WAITING FOR REPLY"
2023-12-21 12:28:17,834 [DEBUG] Changing transaction state from "WAITING FOR REPLY" to "PROCESSING REPLY"
2023-12-21 12:28:17,834 [DEBUG] RECV: 0x0 0x17 0x0 0x0 0x0 0x5 0x0 0x3 0x2 0x0 0xa
2023-12-21 12:28:17,834 [DEBUG] Processing: 0x0 0x17 0x0 0x0 0x0 0x5 0x0 0x3 0x2 0x0 0xa
2023-12-21 12:28:17,834 [DEBUG] Factory Response[ReadHoldingRegistersResponse': 3]
2023-12-21 12:28:17,834 [DEBUG] Adding transaction 23
2023-12-21 12:28:17,834 [DEBUG] Getting transaction 23
2023-12-21 12:28:17,834 [DEBUG] Changing transaction state from "PROCESSING REPLY" to "TRANSACTION_COMPLETE"
2023-12-21 12:28:17,834 [DEBUG] Current transaction state - TRANSACTION_COMPLETE
2023-12-21 12:28:17,834 [DEBUG] Running transaction 24
2023-12-21 12:28:17,834 [DEBUG] SEND: 0x0 0x18 0x0 0x0 0x0 0x6 0x0 0x3 0x0 0x4 0x0 0x1
2023-12-21 12:28:17,834 [DEBUG] New Transaction state "SENDING"
2023-12-21 12:28:17,835 [DEBUG] Changing transaction state from "SENDING" to "WAITING FOR REPLY"
2023-12-21 12:28:17,881 [DEBUG] Changing transaction state from "WAITING FOR REPLY" to "PROCESSING REPLY"
2023-12-21 12:28:17,881 [DEBUG] RECV: 0x0 0x18 0x0 0x0 0x0 0x5 0x0 0x3 0x2 0x0 0x14
2023-12-21 12:28:17,881 [DEBUG] Processing: 0x0 0x18 0x0 0x0 0x0 0x5 0x0 0x3 0x2 0x0 0x14
2023-12-21 12:28:17,881 [DEBUG] Factory Response[ReadHoldingRegistersResponse': 3]
2023-12-21 12:28:17,881 [DEBUG] Adding transaction 24
2023-12-21 12:28:17,881 [DEBUG] Getting transaction 24
2023-12-21 12:28:17,881 [DEBUG] Changing transaction state from "PROCESSING REPLY" to "TRANSACTION_COMPLETE"
2023-12-21 12:28:17,881 [INFO] TRNData[simulationModel][outputs][x] 20.0
2023-12-21 12:28:17,882 [INFO] TRNinputs: [ 1.49519841e+01  1.00000000e+03  3.80000000e+01  0.00000000e+00
  1.90539486e+01 -8.55000000e+00  1.33333333e-01  1.00000000e+00]
2023-12-21 12:28:17,882 [DEBUG] [380, 0]
2023-12-21 12:28:17,882 [DEBUG] Current transaction state - TRANSACTION_COMPLETE
2023-12-21 12:28:17,882 [DEBUG] Running transaction 15
2023-12-21 12:28:17,882 [DEBUG] SEND: 0x0 0xf 0x0 0x0 0x0 0x9 0x0 0x10 0x0 0x0 0x0 0x1 0x2 0x1 0x7c
2023-12-21 12:28:17,882 [DEBUG] New Transaction state "SENDING"
2023-12-21 12:28:17,882 [DEBUG] Changing transaction state from "SENDING" to "WAITING FOR REPLY"
2023-12-21 12:28:17,929 [DEBUG] Changing transaction state from "WAITING FOR REPLY" to "PROCESSING REPLY"
2023-12-21 12:28:17,929 [DEBUG] RECV: 0x0 0xf 0x0 0x0 0x0 0x6 0x0 0x10 0x0 0x0 0x0 0x1
2023-12-21 12:28:17,929 [DEBUG] Processing: 0x0 0xf 0x0 0x0 0x0 0x6 0x0 0x10 0x0 0x0 0x0 0x1
2023-12-21 12:28:17,929 [DEBUG] Factory Response[WriteMultipleRegistersResponse': 16]
2023-12-21 12:28:17,929 [DEBUG] Adding transaction 15
2023-12-21 12:28:17,929 [DEBUG] Getting transaction 15
2023-12-21 12:28:17,929 [DEBUG] Changing transaction state from "PROCESSING REPLY" to "TRANSACTION_COMPLETE"
2023-12-21 12:28:17,929 [INFO] Successfully wrote 38.0 to PLC register 0 for 127.0.0.1:503
2023-12-21 12:28:17,929 [DEBUG] Current transaction state - TRANSACTION_COMPLETE
2023-12-21 12:28:17,929 [DEBUG] Running transaction 16
2023-12-21 12:28:17,930 [DEBUG] SEND: 0x0 0x10 0x0 0x0 0x0 0x9 0x0 0x10 0x0 0x1 0x0 0x1 0x2 0x0 0x0
2023-12-21 12:28:17,930 [DEBUG] New Transaction state "SENDING"
2023-12-21 12:28:17,930 [DEBUG] Changing transaction state from "SENDING" to "WAITING FOR REPLY"
2023-12-21 12:28:17,976 [DEBUG] Changing transaction state from "WAITING FOR REPLY" to "PROCESSING REPLY"
2023-12-21 12:28:17,976 [DEBUG] RECV: 0x0 0x10 0x0 0x0 0x0 0x6 0x0 0x10 0x0 0x1 0x0 0x1
2023-12-21 12:28:17,976 [DEBUG] Processing: 0x0 0x10 0x0 0x0 0x0 0x6 0x0 0x10 0x0 0x1 0x0 0x1
2023-12-21 12:28:17,976 [DEBUG] Factory Response[WriteMultipleRegistersResponse': 16]
2023-12-21 12:28:17,976 [DEBUG] Adding transaction 16
2023-12-21 12:28:17,976 [DEBUG] Getting transaction 16
2023-12-21 12:28:17,976 [DEBUG] Changing transaction state from "PROCESSING REPLY" to "TRANSACTION_COMPLETE"
2023-12-21 12:28:17,976 [INFO] Successfully wrote 0.0 to PLC register 1 for 127.0.0.1:503
2023-12-21 12:28:17,976 [INFO] server_inputs: [38.0, 0.0]
2023-12-21 12:28:18,999 [INFO] TRNinputs: [ 1.47409305e+01  1.00000000e+03  3.80000000e+01  0.00000000e+00
  1.89580115e+01 -8.60000000e+00  1.50000000e-01  1.00000000e+00]
2023-12-21 12:28:18,999 [DEBUG] [65450]
2023-12-21 12:28:19,000 [DEBUG] Current transaction state - TRANSACTION_COMPLETE
2023-12-21 12:28:19,000 [DEBUG] Running transaction 25
2023-12-21 12:28:19,000 [DEBUG] SEND: 0x0 0x19 0x0 0x0 0x0 0x9 0x0 0x10 0x0 0x0 0x0 0x1 0x2 0xff 0xaa
2023-12-21 12:28:19,000 [DEBUG] New Transaction state "SENDING"
2023-12-21 12:28:19,000 [DEBUG] Changing transaction state from "SENDING" to "WAITING FOR REPLY"
2023-12-21 12:28:19,058 [DEBUG] Changing transaction state from "WAITING FOR REPLY" to "PROCESSING REPLY"
2023-12-21 12:28:19,058 [DEBUG] RECV: 0x0 0x19 0x0 0x0 0x0 0x6 0x0 0x10 0x0 0x0 0x0 0x1
2023-12-21 12:28:19,058 [DEBUG] Processing: 0x0 0x19 0x0 0x0 0x0 0x6 0x0 0x10 0x0 0x0 0x0 0x1
2023-12-21 12:28:19,058 [DEBUG] Factory Response[WriteMultipleRegistersResponse': 16]
2023-12-21 12:28:19,058 [DEBUG] Adding transaction 25
2023-12-21 12:28:19,058 [DEBUG] Getting transaction 25
2023-12-21 12:28:19,058 [DEBUG] Changing transaction state from "PROCESSING REPLY" to "TRANSACTION_COMPLETE"
2023-12-21 12:28:19,058 [INFO] Successfully wrote -8.6 to PLC register 0 for 127.0.0.1:502
2023-12-21 12:28:19,058 [DEBUG] Current transaction state - TRANSACTION_COMPLETE
2023-12-21 12:28:19,058 [DEBUG] Running transaction 26
2023-12-21 12:28:19,058 [DEBUG] SEND: 0x0 0x1a 0x0 0x0 0x0 0x6 0x0 0x3 0x0 0x3 0x0 0x1
2023-12-21 12:28:19,058 [DEBUG] New Transaction state "SENDING"
2023-12-21 12:28:19,058 [DEBUG] Changing transaction state from "SENDING" to "WAITING FOR REPLY"
2023-12-21 12:28:19,105 [DEBUG] Changing transaction state from "WAITING FOR REPLY" to "PROCESSING REPLY"
2023-12-21 12:28:19,105 [DEBUG] RECV: 0x0 0x1a 0x0 0x0 0x0 0x5 0x0 0x3 0x2 0x0 0xa
2023-12-21 12:28:19,106 [DEBUG] Processing: 0x0 0x1a 0x0 0x0 0x0 0x5 0x0 0x3 0x2 0x0 0xa
2023-12-21 12:28:19,106 [DEBUG] Factory Response[ReadHoldingRegistersResponse': 3]
2023-12-21 12:28:19,106 [DEBUG] Adding transaction 26
2023-12-21 12:28:19,106 [DEBUG] Getting transaction 26
2023-12-21 12:28:19,106 [DEBUG] Changing transaction state from "PROCESSING REPLY" to "TRANSACTION_COMPLETE"
2023-12-21 12:28:19,106 [DEBUG] Current transaction state - TRANSACTION_COMPLETE
2023-12-21 12:28:19,106 [DEBUG] Running transaction 27
2023-12-21 12:28:19,107 [DEBUG] SEND: 0x0 0x1b 0x0 0x0 0x0 0x6 0x0 0x3 0x0 0x4 0x0 0x1
2023-12-21 12:28:19,107 [DEBUG] New Transaction state "SENDING"
2023-12-21 12:28:19,107 [DEBUG] Changing transaction state from "SENDING" to "WAITING FOR REPLY"
2023-12-21 12:28:19,152 [DEBUG] Changing transaction state from "WAITING FOR REPLY" to "PROCESSING REPLY"
2023-12-21 12:28:19,152 [DEBUG] RECV: 0x0 0x1b 0x0 0x0 0x0 0x5 0x0 0x3 0x2 0x0 0x14
2023-12-21 12:28:19,152 [DEBUG] Processing: 0x0 0x1b 0x0 0x0 0x0 0x5 0x0 0x3 0x2 0x0 0x14
2023-12-21 12:28:19,152 [DEBUG] Factory Response[ReadHoldingRegistersResponse': 3]
2023-12-21 12:28:19,152 [DEBUG] Adding transaction 27
2023-12-21 12:28:19,152 [DEBUG] Getting transaction 27
2023-12-21 12:28:19,152 [DEBUG] Changing transaction state from "PROCESSING REPLY" to "TRANSACTION_COMPLETE"
2023-12-21 12:28:19,153 [INFO] TRNData[simulationModel][outputs][x] 20.0
2023-12-21 12:28:19,153 [INFO] TRNinputs: [ 1.47409305e+01  1.00000000e+03  3.80000000e+01  0.00000000e+00
  1.89580115e+01 -8.60000000e+00  1.50000000e-01  1.00000000e+00]
2023-12-21 12:28:19,153 [DEBUG] [380, 0]
2023-12-21 12:28:19,153 [DEBUG] Current transaction state - TRANSACTION_COMPLETE
2023-12-21 12:28:19,153 [DEBUG] Running transaction 17
2023-12-21 12:28:19,153 [DEBUG] SEND: 0x0 0x11 0x0 0x0 0x0 0x9 0x0 0x10 0x0 0x0 0x0 0x1 0x2 0x1 0x7c
2023-12-21 12:28:19,153 [DEBUG] New Transaction state "SENDING"
2023-12-21 12:28:19,153 [DEBUG] Changing transaction state from "SENDING" to "WAITING FOR REPLY"
2023-12-21 12:28:19,199 [DEBUG] Changing transaction state from "WAITING FOR REPLY" to "PROCESSING REPLY"
2023-12-21 12:28:19,199 [DEBUG] RECV: 0x0 0x11 0x0 0x0 0x0 0x6 0x0 0x10 0x0 0x0 0x0 0x1
2023-12-21 12:28:19,199 [DEBUG] Processing: 0x0 0x11 0x0 0x0 0x0 0x6 0x0 0x10 0x0 0x0 0x0 0x1
2023-12-21 12:28:19,199 [DEBUG] Factory Response[WriteMultipleRegistersResponse': 16]
2023-12-21 12:28:19,199 [DEBUG] Adding transaction 17
2023-12-21 12:28:19,199 [DEBUG] Getting transaction 17
2023-12-21 12:28:19,200 [DEBUG] Changing transaction state from "PROCESSING REPLY" to "TRANSACTION_COMPLETE"
2023-12-21 12:28:19,200 [INFO] Successfully wrote 38.0 to PLC register 0 for 127.0.0.1:503
2023-12-21 12:28:19,200 [DEBUG] Current transaction state - TRANSACTION_COMPLETE
2023-12-21 12:28:19,200 [DEBUG] Running transaction 18
2023-12-21 12:28:19,200 [DEBUG] SEND: 0x0 0x12 0x0 0x0 0x0 0x9 0x0 0x10 0x0 0x1 0x0 0x1 0x2 0x0 0x0
2023-12-21 12:28:19,200 [DEBUG] New Transaction state "SENDING"
2023-12-21 12:28:19,200 [DEBUG] Changing transaction state from "SENDING" to "WAITING FOR REPLY"
2023-12-21 12:28:19,246 [DEBUG] Changing transaction state from "WAITING FOR REPLY" to "PROCESSING REPLY"
2023-12-21 12:28:19,246 [DEBUG] RECV: 0x0 0x12 0x0 0x0 0x0 0x6 0x0 0x10 0x0 0x1 0x0 0x1
2023-12-21 12:28:19,246 [DEBUG] Processing: 0x0 0x12 0x0 0x0 0x0 0x6 0x0 0x10 0x0 0x1 0x0 0x1
2023-12-21 12:28:19,246 [DEBUG] Factory Response[WriteMultipleRegistersResponse': 16]
2023-12-21 12:28:19,247 [DEBUG] Adding transaction 18
2023-12-21 12:28:19,247 [DEBUG] Getting transaction 18
2023-12-21 12:28:19,247 [DEBUG] Changing transaction state from "PROCESSING REPLY" to "TRANSACTION_COMPLETE"
2023-12-21 12:28:19,247 [INFO] Successfully wrote 0.0 to PLC register 1 for 127.0.0.1:503
2023-12-21 12:28:19,247 [INFO] server_inputs: [38.0, 0.0]
2023-12-21 12:28:20,271 [INFO] TRNinputs: [ 1.46005533e+01  1.00000000e+03  3.80000000e+01  0.00000000e+00
  1.88682552e+01 -8.60000000e+00  1.66666667e-01  1.00000000e+00]
2023-12-21 12:28:20,271 [DEBUG] [65450]
2023-12-21 12:28:20,271 [DEBUG] Current transaction state - TRANSACTION_COMPLETE
2023-12-21 12:28:20,271 [DEBUG] Running transaction 28
2023-12-21 12:28:20,271 [DEBUG] SEND: 0x0 0x1c 0x0 0x0 0x0 0x9 0x0 0x10 0x0 0x0 0x0 0x1 0x2 0xff 0xaa
2023-12-21 12:28:20,271 [DEBUG] New Transaction state "SENDING"
2023-12-21 12:28:20,272 [DEBUG] Changing transaction state from "SENDING" to "WAITING FOR REPLY"
2023-12-21 12:28:20,321 [DEBUG] Changing transaction state from "WAITING FOR REPLY" to "PROCESSING REPLY"
2023-12-21 12:28:20,321 [DEBUG] RECV: 0x0 0x1c 0x0 0x0 0x0 0x6 0x0 0x10 0x0 0x0 0x0 0x1
2023-12-21 12:28:20,321 [DEBUG] Processing: 0x0 0x1c 0x0 0x0 0x0 0x6 0x0 0x10 0x0 0x0 0x0 0x1
2023-12-21 12:28:20,322 [DEBUG] Factory Response[WriteMultipleRegistersResponse': 16]
2023-12-21 12:28:20,322 [DEBUG] Adding transaction 28
2023-12-21 12:28:20,322 [DEBUG] Getting transaction 28
2023-12-21 12:28:20,322 [DEBUG] Changing transaction state from "PROCESSING REPLY" to "TRANSACTION_COMPLETE"
2023-12-21 12:28:20,322 [INFO] Successfully wrote -8.6 to PLC register 0 for 127.0.0.1:502
2023-12-21 12:28:20,322 [DEBUG] Current transaction state - TRANSACTION_COMPLETE
2023-12-21 12:28:20,322 [DEBUG] Running transaction 29
2023-12-21 12:28:20,322 [DEBUG] SEND: 0x0 0x1d 0x0 0x0 0x0 0x6 0x0 0x3 0x0 0x3 0x0 0x1
2023-12-21 12:28:20,322 [DEBUG] New Transaction state "SENDING"
2023-12-21 12:28:20,322 [DEBUG] Changing transaction state from "SENDING" to "WAITING FOR REPLY"
2023-12-21 12:28:20,367 [DEBUG] Changing transaction state from "WAITING FOR REPLY" to "PROCESSING REPLY"
2023-12-21 12:28:20,368 [DEBUG] RECV: 0x0 0x1d 0x0 0x0 0x0 0x5 0x0 0x3 0x2 0x0 0xa
2023-12-21 12:28:20,368 [DEBUG] Processing: 0x0 0x1d 0x0 0x0 0x0 0x5 0x0 0x3 0x2 0x0 0xa
2023-12-21 12:28:20,368 [DEBUG] Factory Response[ReadHoldingRegistersResponse': 3]
2023-12-21 12:28:20,369 [DEBUG] Adding transaction 29
2023-12-21 12:28:20,369 [DEBUG] Getting transaction 29
2023-12-21 12:28:20,369 [DEBUG] Changing transaction state from "PROCESSING REPLY" to "TRANSACTION_COMPLETE"
2023-12-21 12:28:20,369 [DEBUG] Current transaction state - TRANSACTION_COMPLETE
2023-12-21 12:28:20,370 [DEBUG] Running transaction 30
2023-12-21 12:28:20,370 [DEBUG] SEND: 0x0 0x1e 0x0 0x0 0x0 0x6 0x0 0x3 0x0 0x4 0x0 0x1
2023-12-21 12:28:20,370 [DEBUG] New Transaction state "SENDING"
2023-12-21 12:28:20,370 [DEBUG] Changing transaction state from "SENDING" to "WAITING FOR REPLY"
2023-12-21 12:28:20,415 [DEBUG] Changing transaction state from "WAITING FOR REPLY" to "PROCESSING REPLY"
2023-12-21 12:28:20,415 [DEBUG] RECV: 0x0 0x1e 0x0 0x0 0x0 0x5 0x0 0x3 0x2 0x0 0x14
2023-12-21 12:28:20,415 [DEBUG] Processing: 0x0 0x1e 0x0 0x0 0x0 0x5 0x0 0x3 0x2 0x0 0x14
2023-12-21 12:28:20,416 [DEBUG] Factory Response[ReadHoldingRegistersResponse': 3]
2023-12-21 12:28:20,416 [DEBUG] Adding transaction 30
2023-12-21 12:28:20,416 [DEBUG] Getting transaction 30
2023-12-21 12:28:20,416 [DEBUG] Changing transaction state from "PROCESSING REPLY" to "TRANSACTION_COMPLETE"
2023-12-21 12:28:20,416 [INFO] TRNData[simulationModel][outputs][x] 20.0
2023-12-21 12:28:20,416 [INFO] TRNinputs: [ 1.46005533e+01  1.00000000e+03  3.80000000e+01  0.00000000e+00
  1.88682552e+01 -8.60000000e+00  1.66666667e-01  1.00000000e+00]
2023-12-21 12:28:20,416 [DEBUG] [380, 0]
2023-12-21 12:28:20,416 [DEBUG] Current transaction state - TRANSACTION_COMPLETE
2023-12-21 12:28:20,417 [DEBUG] Running transaction 19
2023-12-21 12:28:20,417 [DEBUG] SEND: 0x0 0x13 0x0 0x0 0x0 0x9 0x0 0x10 0x0 0x0 0x0 0x1 0x2 0x1 0x7c
2023-12-21 12:28:20,417 [DEBUG] New Transaction state "SENDING"
2023-12-21 12:28:20,417 [DEBUG] Changing transaction state from "SENDING" to "WAITING FOR REPLY"
2023-12-21 12:28:20,462 [DEBUG] Changing transaction state from "WAITING FOR REPLY" to "PROCESSING REPLY"
2023-12-21 12:28:20,462 [DEBUG] RECV: 0x0 0x13 0x0 0x0 0x0 0x6 0x0 0x10 0x0 0x0 0x0 0x1
2023-12-21 12:28:20,463 [DEBUG] Processing: 0x0 0x13 0x0 0x0 0x0 0x6 0x0 0x10 0x0 0x0 0x0 0x1
2023-12-21 12:28:20,463 [DEBUG] Factory Response[WriteMultipleRegistersResponse': 16]
2023-12-21 12:28:20,463 [DEBUG] Adding transaction 19
2023-12-21 12:28:20,463 [DEBUG] Getting transaction 19
2023-12-21 12:28:20,463 [DEBUG] Changing transaction state from "PROCESSING REPLY" to "TRANSACTION_COMPLETE"
2023-12-21 12:28:20,464 [INFO] Successfully wrote 38.0 to PLC register 0 for 127.0.0.1:503
2023-12-21 12:28:20,464 [DEBUG] Current transaction state - TRANSACTION_COMPLETE
2023-12-21 12:28:20,464 [DEBUG] Running transaction 20
2023-12-21 12:28:20,464 [DEBUG] SEND: 0x0 0x14 0x0 0x0 0x0 0x9 0x0 0x10 0x0 0x1 0x0 0x1 0x2 0x0 0x0
2023-12-21 12:28:20,464 [DEBUG] New Transaction state "SENDING"
2023-12-21 12:28:20,465 [DEBUG] Changing transaction state from "SENDING" to "WAITING FOR REPLY"
2023-12-21 12:28:20,509 [DEBUG] Changing transaction state from "WAITING FOR REPLY" to "PROCESSING REPLY"
2023-12-21 12:28:20,509 [DEBUG] RECV: 0x0 0x14 0x0 0x0 0x0 0x6 0x0 0x10 0x0 0x1 0x0 0x1
2023-12-21 12:28:20,510 [DEBUG] Processing: 0x0 0x14 0x0 0x0 0x0 0x6 0x0 0x10 0x0 0x1 0x0 0x1
2023-12-21 12:28:20,510 [DEBUG] Factory Response[WriteMultipleRegistersResponse': 16]
2023-12-21 12:28:20,510 [DEBUG] Adding transaction 20
2023-12-21 12:28:20,510 [DEBUG] Getting transaction 20
2023-12-21 12:28:20,510 [DEBUG] Changing transaction state from "PROCESSING REPLY" to "TRANSACTION_COMPLETE"
2023-12-21 12:28:20,510 [INFO] Successfully wrote 0.0 to PLC register 1 for 127.0.0.1:503
2023-12-21 12:28:20,510 [INFO] server_inputs: [38.0, 0.0]
2023-12-21 12:28:21,539 [INFO] TRNinputs: [ 1.44865726e+01  1.00000000e+03  3.80000000e+01  0.00000000e+00
  1.87846992e+01 -8.60000000e+00  1.83333333e-01  1.00000000e+00]
2023-12-21 12:28:21,539 [DEBUG] [65450]
2023-12-21 12:28:21,539 [DEBUG] Current transaction state - TRANSACTION_COMPLETE
2023-12-21 12:28:21,539 [DEBUG] Running transaction 31
2023-12-21 12:28:21,539 [DEBUG] SEND: 0x0 0x1f 0x0 0x0 0x0 0x9 0x0 0x10 0x0 0x0 0x0 0x1 0x2 0xff 0xaa
2023-12-21 12:28:21,539 [DEBUG] New Transaction state "SENDING"
2023-12-21 12:28:21,539 [DEBUG] Changing transaction state from "SENDING" to "WAITING FOR REPLY"
2023-12-21 12:28:21,589 [DEBUG] Changing transaction state from "WAITING FOR REPLY" to "PROCESSING REPLY"
2023-12-21 12:28:21,589 [DEBUG] RECV: 0x0 0x1f 0x0 0x0 0x0 0x6 0x0 0x10 0x0 0x0 0x0 0x1
2023-12-21 12:28:21,589 [DEBUG] Processing: 0x0 0x1f 0x0 0x0 0x0 0x6 0x0 0x10 0x0 0x0 0x0 0x1
2023-12-21 12:28:21,589 [DEBUG] Factory Response[WriteMultipleRegistersResponse': 16]
2023-12-21 12:28:21,589 [DEBUG] Adding transaction 31
2023-12-21 12:28:21,589 [DEBUG] Getting transaction 31
2023-12-21 12:28:21,590 [DEBUG] Changing transaction state from "PROCESSING REPLY" to "TRANSACTION_COMPLETE"
2023-12-21 12:28:21,590 [INFO] Successfully wrote -8.6 to PLC register 0 for 127.0.0.1:502
2023-12-21 12:28:21,590 [DEBUG] Current transaction state - TRANSACTION_COMPLETE
2023-12-21 12:28:21,590 [DEBUG] Running transaction 32
2023-12-21 12:28:21,590 [DEBUG] SEND: 0x0 0x20 0x0 0x0 0x0 0x6 0x0 0x3 0x0 0x3 0x0 0x1
2023-12-21 12:28:21,590 [DEBUG] New Transaction state "SENDING"
2023-12-21 12:28:21,590 [DEBUG] Changing transaction state from "SENDING" to "WAITING FOR REPLY"
2023-12-21 12:28:21,635 [DEBUG] Changing transaction state from "WAITING FOR REPLY" to "PROCESSING REPLY"
2023-12-21 12:28:21,635 [DEBUG] RECV: 0x0 0x20 0x0 0x0 0x0 0x5 0x0 0x3 0x2 0x0 0xa
2023-12-21 12:28:21,635 [DEBUG] Processing: 0x0 0x20 0x0 0x0 0x0 0x5 0x0 0x3 0x2 0x0 0xa
2023-12-21 12:28:21,635 [DEBUG] Factory Response[ReadHoldingRegistersResponse': 3]
2023-12-21 12:28:21,636 [DEBUG] Adding transaction 32
2023-12-21 12:28:21,636 [DEBUG] Getting transaction 32
2023-12-21 12:28:21,636 [DEBUG] Changing transaction state from "PROCESSING REPLY" to "TRANSACTION_COMPLETE"
2023-12-21 12:28:21,636 [DEBUG] Current transaction state - TRANSACTION_COMPLETE
2023-12-21 12:28:21,636 [DEBUG] Running transaction 33
2023-12-21 12:28:21,636 [DEBUG] SEND: 0x0 0x21 0x0 0x0 0x0 0x6 0x0 0x3 0x0 0x4 0x0 0x1
2023-12-21 12:28:21,636 [DEBUG] New Transaction state "SENDING"
2023-12-21 12:28:21,636 [DEBUG] Changing transaction state from "SENDING" to "WAITING FOR REPLY"
2023-12-21 12:28:21,682 [DEBUG] Changing transaction state from "WAITING FOR REPLY" to "PROCESSING REPLY"
2023-12-21 12:28:21,683 [DEBUG] RECV: 0x0 0x21 0x0 0x0 0x0 0x5 0x0 0x3 0x2 0x0 0x14
2023-12-21 12:28:21,683 [DEBUG] Processing: 0x0 0x21 0x0 0x0 0x0 0x5 0x0 0x3 0x2 0x0 0x14
2023-12-21 12:28:21,683 [DEBUG] Factory Response[ReadHoldingRegistersResponse': 3]
2023-12-21 12:28:21,683 [DEBUG] Adding transaction 33
2023-12-21 12:28:21,683 [DEBUG] Getting transaction 33
2023-12-21 12:28:21,683 [DEBUG] Changing transaction state from "PROCESSING REPLY" to "TRANSACTION_COMPLETE"
2023-12-21 12:28:21,683 [INFO] TRNData[simulationModel][outputs][x] 20.0
2023-12-21 12:28:21,683 [INFO] TRNinputs: [ 1.44865726e+01  1.00000000e+03  3.80000000e+01  0.00000000e+00
  1.87846992e+01 -8.60000000e+00  1.83333333e-01  1.00000000e+00]
2023-12-21 12:28:21,684 [DEBUG] [380, 0]
2023-12-21 12:28:21,684 [DEBUG] Current transaction state - TRANSACTION_COMPLETE
2023-12-21 12:28:21,684 [DEBUG] Running transaction 21
2023-12-21 12:28:21,684 [DEBUG] SEND: 0x0 0x15 0x0 0x0 0x0 0x9 0x0 0x10 0x0 0x0 0x0 0x1 0x2 0x1 0x7c
2023-12-21 12:28:21,684 [DEBUG] New Transaction state "SENDING"
2023-12-21 12:28:21,684 [DEBUG] Changing transaction state from "SENDING" to "WAITING FOR REPLY"
2023-12-21 12:28:21,729 [DEBUG] Changing transaction state from "WAITING FOR REPLY" to "PROCESSING REPLY"
2023-12-21 12:28:21,729 [DEBUG] RECV: 0x0 0x15 0x0 0x0 0x0 0x6 0x0 0x10 0x0 0x0 0x0 0x1
2023-12-21 12:28:21,729 [DEBUG] Processing: 0x0 0x15 0x0 0x0 0x0 0x6 0x0 0x10 0x0 0x0 0x0 0x1
2023-12-21 12:28:21,729 [DEBUG] Factory Response[WriteMultipleRegistersResponse': 16]
2023-12-21 12:28:21,729 [DEBUG] Adding transaction 21
2023-12-21 12:28:21,730 [DEBUG] Getting transaction 21
2023-12-21 12:28:21,730 [DEBUG] Changing transaction state from "PROCESSING REPLY" to "TRANSACTION_COMPLETE"
2023-12-21 12:28:21,730 [INFO] Successfully wrote 38.0 to PLC register 0 for 127.0.0.1:503
2023-12-21 12:28:21,730 [DEBUG] Current transaction state - TRANSACTION_COMPLETE
2023-12-21 12:28:21,730 [DEBUG] Running transaction 22
2023-12-21 12:28:21,730 [DEBUG] SEND: 0x0 0x16 0x0 0x0 0x0 0x9 0x0 0x10 0x0 0x1 0x0 0x1 0x2 0x0 0x0
2023-12-21 12:28:21,730 [DEBUG] New Transaction state "SENDING"
2023-12-21 12:28:21,730 [DEBUG] Changing transaction state from "SENDING" to "WAITING FOR REPLY"
2023-12-21 12:28:21,776 [DEBUG] Changing transaction state from "WAITING FOR REPLY" to "PROCESSING REPLY"
2023-12-21 12:28:21,776 [DEBUG] RECV: 0x0 0x16 0x0 0x0 0x0 0x6 0x0 0x10 0x0 0x1 0x0 0x1
2023-12-21 12:28:21,776 [DEBUG] Processing: 0x0 0x16 0x0 0x0 0x0 0x6 0x0 0x10 0x0 0x1 0x0 0x1
2023-12-21 12:28:21,777 [DEBUG] Factory Response[WriteMultipleRegistersResponse': 16]
2023-12-21 12:28:21,777 [DEBUG] Adding transaction 22
2023-12-21 12:28:21,777 [DEBUG] Getting transaction 22
2023-12-21 12:28:21,777 [DEBUG] Changing transaction state from "PROCESSING REPLY" to "TRANSACTION_COMPLETE"
2023-12-21 12:28:21,777 [INFO] Successfully wrote 0.0 to PLC register 1 for 127.0.0.1:503
2023-12-21 12:28:21,777 [INFO] server_inputs: [38.0, 0.0]
2023-12-21 12:28:22,795 [INFO] TRNinputs: [ 1.44129415e+01  1.00000000e+03  3.80000000e+01  0.00000000e+00
  1.87071403e+01 -8.60000000e+00  2.00000000e-01  1.00000000e+00]
2023-12-21 12:28:22,795 [DEBUG] [65450]
2023-12-21 12:28:22,795 [DEBUG] Current transaction state - TRANSACTION_COMPLETE
2023-12-21 12:28:22,795 [DEBUG] Running transaction 34
2023-12-21 12:28:22,795 [DEBUG] SEND: 0x0 0x22 0x0 0x0 0x0 0x9 0x0 0x10 0x0 0x0 0x0 0x1 0x2 0xff 0xaa
2023-12-21 12:28:22,795 [DEBUG] New Transaction state "SENDING"
2023-12-21 12:28:22,795 [DEBUG] Changing transaction state from "SENDING" to "WAITING FOR REPLY"
2023-12-21 12:28:22,857 [DEBUG] Changing transaction state from "WAITING FOR REPLY" to "PROCESSING REPLY"
2023-12-21 12:28:22,857 [DEBUG] RECV: 0x0 0x22 0x0 0x0 0x0 0x6 0x0 0x10 0x0 0x0 0x0 0x1
2023-12-21 12:28:22,857 [DEBUG] Processing: 0x0 0x22 0x0 0x0 0x0 0x6 0x0 0x10 0x0 0x0 0x0 0x1
2023-12-21 12:28:22,858 [DEBUG] Factory Response[WriteMultipleRegistersResponse': 16]
2023-12-21 12:28:22,858 [DEBUG] Adding transaction 34
2023-12-21 12:28:22,858 [DEBUG] Getting transaction 34
2023-12-21 12:28:22,858 [DEBUG] Changing transaction state from "PROCESSING REPLY" to "TRANSACTION_COMPLETE"
2023-12-21 12:28:22,858 [INFO] Successfully wrote -8.6 to PLC register 0 for 127.0.0.1:502
2023-12-21 12:28:22,858 [DEBUG] Current transaction state - TRANSACTION_COMPLETE
2023-12-21 12:28:22,858 [DEBUG] Running transaction 35
2023-12-21 12:28:22,858 [DEBUG] SEND: 0x0 0x23 0x0 0x0 0x0 0x6 0x0 0x3 0x0 0x3 0x0 0x1
2023-12-21 12:28:22,859 [DEBUG] New Transaction state "SENDING"
2023-12-21 12:28:22,859 [DEBUG] Changing transaction state from "SENDING" to "WAITING FOR REPLY"
2023-12-21 12:28:22,905 [DEBUG] Changing transaction state from "WAITING FOR REPLY" to "PROCESSING REPLY"
2023-12-21 12:28:22,905 [DEBUG] RECV: 0x0 0x23 0x0 0x0 0x0 0x5 0x0 0x3 0x2 0x0 0xa
2023-12-21 12:28:22,905 [DEBUG] Processing: 0x0 0x23 0x0 0x0 0x0 0x5 0x0 0x3 0x2 0x0 0xa
2023-12-21 12:28:22,905 [DEBUG] Factory Response[ReadHoldingRegistersResponse': 3]
2023-12-21 12:28:22,905 [DEBUG] Adding transaction 35
2023-12-21 12:28:22,906 [DEBUG] Getting transaction 35
2023-12-21 12:28:22,906 [DEBUG] Changing transaction state from "PROCESSING REPLY" to "TRANSACTION_COMPLETE"
2023-12-21 12:28:22,906 [DEBUG] Current transaction state - TRANSACTION_COMPLETE
2023-12-21 12:28:22,906 [DEBUG] Running transaction 36
2023-12-21 12:28:22,906 [DEBUG] SEND: 0x0 0x24 0x0 0x0 0x0 0x6 0x0 0x3 0x0 0x4 0x0 0x1
2023-12-21 12:28:22,906 [DEBUG] New Transaction state "SENDING"
2023-12-21 12:28:22,906 [DEBUG] Changing transaction state from "SENDING" to "WAITING FOR REPLY"
2023-12-21 12:28:22,952 [DEBUG] Changing transaction state from "WAITING FOR REPLY" to "PROCESSING REPLY"
2023-12-21 12:28:22,952 [DEBUG] RECV: 0x0 0x24 0x0 0x0 0x0 0x5 0x0 0x3 0x2 0x0 0x14
2023-12-21 12:28:22,952 [DEBUG] Processing: 0x0 0x24 0x0 0x0 0x0 0x5 0x0 0x3 0x2 0x0 0x14
2023-12-21 12:28:22,952 [DEBUG] Factory Response[ReadHoldingRegistersResponse': 3]
2023-12-21 12:28:22,952 [DEBUG] Adding transaction 36
2023-12-21 12:28:22,952 [DEBUG] Getting transaction 36
2023-12-21 12:28:22,952 [DEBUG] Changing transaction state from "PROCESSING REPLY" to "TRANSACTION_COMPLETE"
2023-12-21 12:28:22,952 [INFO] TRNData[simulationModel][outputs][x] 20.0
2023-12-21 12:28:22,953 [INFO] TRNinputs: [ 1.44129415e+01  1.00000000e+03  3.80000000e+01  0.00000000e+00
  1.87071403e+01 -8.60000000e+00  2.00000000e-01  1.00000000e+00]
2023-12-21 12:28:22,953 [DEBUG] [380, 0]
2023-12-21 12:28:22,953 [DEBUG] Current transaction state - TRANSACTION_COMPLETE
2023-12-21 12:28:22,953 [DEBUG] Running transaction 23
2023-12-21 12:28:22,953 [DEBUG] SEND: 0x0 0x17 0x0 0x0 0x0 0x9 0x0 0x10 0x0 0x0 0x0 0x1 0x2 0x1 0x7c
2023-12-21 12:28:22,953 [DEBUG] New Transaction state "SENDING"
2023-12-21 12:28:22,953 [DEBUG] Changing transaction state from "SENDING" to "WAITING FOR REPLY"
2023-12-21 12:28:22,999 [DEBUG] Changing transaction state from "WAITING FOR REPLY" to "PROCESSING REPLY"
2023-12-21 12:28:23,000 [DEBUG] RECV: 0x0 0x17 0x0 0x0 0x0 0x6 0x0 0x10 0x0 0x0 0x0 0x1
2023-12-21 12:28:23,000 [DEBUG] Processing: 0x0 0x17 0x0 0x0 0x0 0x6 0x0 0x10 0x0 0x0 0x0 0x1
2023-12-21 12:28:23,000 [DEBUG] Factory Response[WriteMultipleRegistersResponse': 16]
2023-12-21 12:28:23,000 [DEBUG] Adding transaction 23
2023-12-21 12:28:23,001 [DEBUG] Getting transaction 23
2023-12-21 12:28:23,001 [DEBUG] Changing transaction state from "PROCESSING REPLY" to "TRANSACTION_COMPLETE"
2023-12-21 12:28:23,001 [INFO] Successfully wrote 38.0 to PLC register 0 for 127.0.0.1:503
2023-12-21 12:28:23,001 [DEBUG] Current transaction state - TRANSACTION_COMPLETE
2023-12-21 12:28:23,001 [DEBUG] Running transaction 24
2023-12-21 12:28:23,002 [DEBUG] SEND: 0x0 0x18 0x0 0x0 0x0 0x9 0x0 0x10 0x0 0x1 0x0 0x1 0x2 0x0 0x0
2023-12-21 12:28:23,002 [DEBUG] New Transaction state "SENDING"
2023-12-21 12:28:23,002 [DEBUG] Changing transaction state from "SENDING" to "WAITING FOR REPLY"
2023-12-21 12:28:23,046 [DEBUG] Changing transaction state from "WAITING FOR REPLY" to "PROCESSING REPLY"
2023-12-21 12:28:23,047 [DEBUG] RECV: 0x0 0x18 0x0 0x0 0x0 0x6 0x0 0x10 0x0 0x1 0x0 0x1
2023-12-21 12:28:23,047 [DEBUG] Processing: 0x0 0x18 0x0 0x0 0x0 0x6 0x0 0x10 0x0 0x1 0x0 0x1
2023-12-21 12:28:23,048 [DEBUG] Factory Response[WriteMultipleRegistersResponse': 16]
2023-12-21 12:28:23,048 [DEBUG] Adding transaction 24
2023-12-21 12:28:23,048 [DEBUG] Getting transaction 24
2023-12-21 12:28:23,048 [DEBUG] Changing transaction state from "PROCESSING REPLY" to "TRANSACTION_COMPLETE"
2023-12-21 12:28:23,048 [INFO] Successfully wrote 0.0 to PLC register 1 for 127.0.0.1:503
2023-12-21 12:28:23,048 [INFO] server_inputs: [38.0, 0.0]
2023-12-21 12:28:24,073 [INFO] TRNinputs: [ 1.43508945e+01  1.00000000e+03  3.80000000e+01  0.00000000e+00
  1.86350881e+01 -8.60000000e+00  2.16666667e-01  1.00000000e+00]
2023-12-21 12:28:24,073 [DEBUG] [65450]
2023-12-21 12:28:24,074 [DEBUG] Current transaction state - TRANSACTION_COMPLETE
2023-12-21 12:28:24,074 [DEBUG] Running transaction 37
2023-12-21 12:28:24,074 [DEBUG] SEND: 0x0 0x25 0x0 0x0 0x0 0x9 0x0 0x10 0x0 0x0 0x0 0x1 0x2 0xff 0xaa
2023-12-21 12:28:24,074 [DEBUG] New Transaction state "SENDING"
2023-12-21 12:28:24,074 [DEBUG] Changing transaction state from "SENDING" to "WAITING FOR REPLY"
2023-12-21 12:28:24,122 [DEBUG] Changing transaction state from "WAITING FOR REPLY" to "PROCESSING REPLY"
2023-12-21 12:28:24,122 [DEBUG] RECV: 0x0 0x25 0x0 0x0 0x0 0x6 0x0 0x10 0x0 0x0 0x0 0x1
2023-12-21 12:28:24,122 [DEBUG] Processing: 0x0 0x25 0x0 0x0 0x0 0x6 0x0 0x10 0x0 0x0 0x0 0x1
2023-12-21 12:28:24,122 [DEBUG] Factory Response[WriteMultipleRegistersResponse': 16]
2023-12-21 12:28:24,123 [DEBUG] Adding transaction 37
2023-12-21 12:28:24,123 [DEBUG] Getting transaction 37
2023-12-21 12:28:24,123 [DEBUG] Changing transaction state from "PROCESSING REPLY" to "TRANSACTION_COMPLETE"
2023-12-21 12:28:24,123 [INFO] Successfully wrote -8.6 to PLC register 0 for 127.0.0.1:502
2023-12-21 12:28:24,123 [DEBUG] Current transaction state - TRANSACTION_COMPLETE
2023-12-21 12:28:24,123 [DEBUG] Running transaction 38
2023-12-21 12:28:24,123 [DEBUG] SEND: 0x0 0x26 0x0 0x0 0x0 0x6 0x0 0x3 0x0 0x3 0x0 0x1
2023-12-21 12:28:24,123 [DEBUG] New Transaction state "SENDING"
2023-12-21 12:28:24,123 [DEBUG] Changing transaction state from "SENDING" to "WAITING FOR REPLY"
2023-12-21 12:28:24,169 [DEBUG] Changing transaction state from "WAITING FOR REPLY" to "PROCESSING REPLY"
2023-12-21 12:28:24,169 [DEBUG] RECV: 0x0 0x26 0x0 0x0 0x0 0x5 0x0 0x3 0x2 0x0 0xa
2023-12-21 12:28:24,169 [DEBUG] Processing: 0x0 0x26 0x0 0x0 0x0 0x5 0x0 0x3 0x2 0x0 0xa
2023-12-21 12:28:24,170 [DEBUG] Factory Response[ReadHoldingRegistersResponse': 3]
2023-12-21 12:28:24,170 [DEBUG] Adding transaction 38
2023-12-21 12:28:24,170 [DEBUG] Getting transaction 38
2023-12-21 12:28:24,170 [DEBUG] Changing transaction state from "PROCESSING REPLY" to "TRANSACTION_COMPLETE"
2023-12-21 12:28:24,170 [DEBUG] Current transaction state - TRANSACTION_COMPLETE
2023-12-21 12:28:24,170 [DEBUG] Running transaction 39
2023-12-21 12:28:24,170 [DEBUG] SEND: 0x0 0x27 0x0 0x0 0x0 0x6 0x0 0x3 0x0 0x4 0x0 0x1
