2023-12-22 19:16:53,126 [DEBUG] [65459, 65459, 65459]
2023-12-22 19:16:53,131 [DEBUG] Connection to Modbus server established. Socket ('127.0.0.1', 26489)
2023-12-22 19:16:53,132 [DEBUG] Current transaction state - IDLE
2023-12-22 19:16:53,132 [DEBUG] Running transaction 1
2023-12-22 19:16:53,132 [DEBUG] SEND: 0x0 0x1 0x0 0x0 0x0 0x9 0x0 0x10 0x0 0x0 0x0 0x1 0x2 0xff 0xb3
2023-12-22 19:16:53,132 [DEBUG] New Transaction state "SENDING"
2023-12-22 19:16:53,132 [DEBUG] Changing transaction state from "SENDING" to "WAITING FOR REPLY"
2023-12-22 19:16:53,194 [DEBUG] Changing transaction state from "WAITING FOR REPLY" to "PROCESSING REPLY"
2023-12-22 19:16:53,195 [DEBUG] RECV: 0x0 0x1 0x0 0x0 0x0 0x6 0x0 0x10 0x0 0x0 0x0 0x1
2023-12-22 19:16:53,195 [DEBUG] Processing: 0x0 0x1 0x0 0x0 0x0 0x6 0x0 0x10 0x0 0x0 0x0 0x1
2023-12-22 19:16:53,195 [DEBUG] Factory Response[WriteMultipleRegistersResponse': 16]
2023-12-22 19:16:53,196 [DEBUG] Adding transaction 1
2023-12-22 19:16:53,196 [DEBUG] Getting transaction 1
2023-12-22 19:16:53,196 [DEBUG] Changing transaction state from "PROCESSING REPLY" to "TRANSACTION_COMPLETE"
2023-12-22 19:16:53,197 [INFO] Successfully wrote -7.7 to PLC register 1 for 127.0.0.1:502
2023-12-22 19:16:53,197 [DEBUG] Current transaction state - TRANSACTION_COMPLETE
2023-12-22 19:16:53,197 [DEBUG] Running transaction 2
2023-12-22 19:16:53,197 [DEBUG] SEND: 0x0 0x2 0x0 0x0 0x0 0x9 0x0 0x10 0x0 0xa 0x0 0x1 0x2 0xff 0xb3
2023-12-22 19:16:53,198 [DEBUG] New Transaction state "SENDING"
2023-12-22 19:16:53,198 [DEBUG] Changing transaction state from "SENDING" to "WAITING FOR REPLY"
2023-12-22 19:16:53,242 [DEBUG] Changing transaction state from "WAITING FOR REPLY" to "PROCESSING REPLY"
2023-12-22 19:16:53,243 [DEBUG] RECV: 0x0 0x2 0x0 0x0 0x0 0x6 0x0 0x10 0x0 0xa 0x0 0x1
2023-12-22 19:16:53,243 [DEBUG] Processing: 0x0 0x2 0x0 0x0 0x0 0x6 0x0 0x10 0x0 0xa 0x0 0x1
2023-12-22 19:16:53,243 [DEBUG] Factory Response[WriteMultipleRegistersResponse': 16]
2023-12-22 19:16:53,244 [DEBUG] Adding transaction 2
2023-12-22 19:16:53,244 [DEBUG] Getting transaction 2
2023-12-22 19:16:53,244 [DEBUG] Changing transaction state from "PROCESSING REPLY" to "TRANSACTION_COMPLETE"
2023-12-22 19:16:53,244 [INFO] Successfully wrote -7.7 to PLC register 11 for 127.0.0.1:502
2023-12-22 19:16:53,245 [DEBUG] Current transaction state - TRANSACTION_COMPLETE
2023-12-22 19:16:53,245 [DEBUG] Running transaction 3
2023-12-22 19:16:53,245 [DEBUG] SEND: 0x0 0x3 0x0 0x0 0x0 0x9 0x0 0x10 0x0 0xb 0x0 0x1 0x2 0xff 0xb3
2023-12-22 19:16:53,246 [DEBUG] New Transaction state "SENDING"
2023-12-22 19:16:53,246 [DEBUG] Changing transaction state from "SENDING" to "WAITING FOR REPLY"
2023-12-22 19:16:53,290 [DEBUG] Changing transaction state from "WAITING FOR REPLY" to "PROCESSING REPLY"
2023-12-22 19:16:53,291 [DEBUG] RECV: 0x0 0x3 0x0 0x0 0x0 0x6 0x0 0x10 0x0 0xb 0x0 0x1
2023-12-22 19:16:53,291 [DEBUG] Processing: 0x0 0x3 0x0 0x0 0x0 0x6 0x0 0x10 0x0 0xb 0x0 0x1
2023-12-22 19:16:53,291 [DEBUG] Factory Response[WriteMultipleRegistersResponse': 16]
2023-12-22 19:16:53,291 [DEBUG] Adding transaction 3
2023-12-22 19:16:53,292 [DEBUG] Getting transaction 3
2023-12-22 19:16:53,292 [DEBUG] Changing transaction state from "PROCESSING REPLY" to "TRANSACTION_COMPLETE"
2023-12-22 19:16:53,292 [INFO] Successfully wrote -7.7 to PLC register 12 for 127.0.0.1:502
2023-12-22 19:16:53,292 [DEBUG] Current transaction state - TRANSACTION_COMPLETE
2023-12-22 19:16:53,292 [DEBUG] Running transaction 4
2023-12-22 19:16:53,292 [DEBUG] SEND: 0x0 0x4 0x0 0x0 0x0 0x6 0x0 0x3 0x0 0x4 0x0 0x1
2023-12-22 19:16:53,293 [DEBUG] New Transaction state "SENDING"
2023-12-22 19:16:53,293 [DEBUG] Changing transaction state from "SENDING" to "WAITING FOR REPLY"
2023-12-22 19:16:53,339 [DEBUG] Changing transaction state from "WAITING FOR REPLY" to "PROCESSING REPLY"
2023-12-22 19:16:53,339 [DEBUG] RECV: 0x0 0x4 0x0 0x0 0x0 0x5 0x0 0x3 0x2 0x0 0x14
2023-12-22 19:16:53,339 [DEBUG] Processing: 0x0 0x4 0x0 0x0 0x0 0x5 0x0 0x3 0x2 0x0 0x14
2023-12-22 19:16:53,339 [DEBUG] Factory Response[ReadHoldingRegistersResponse': 3]
2023-12-22 19:16:53,339 [DEBUG] Adding transaction 4
2023-12-22 19:16:53,339 [DEBUG] Getting transaction 4
2023-12-22 19:16:53,340 [DEBUG] Changing transaction state from "PROCESSING REPLY" to "TRANSACTION_COMPLETE"
2023-12-22 19:16:53,340 [DEBUG] Current transaction state - TRANSACTION_COMPLETE
2023-12-22 19:16:53,340 [DEBUG] Running transaction 5
2023-12-22 19:16:53,340 [DEBUG] SEND: 0x0 0x5 0x0 0x0 0x0 0x6 0x0 0x3 0x0 0x5 0x0 0x1
2023-12-22 19:16:53,340 [DEBUG] New Transaction state "SENDING"
2023-12-22 19:16:53,340 [DEBUG] Changing transaction state from "SENDING" to "WAITING FOR REPLY"
2023-12-22 19:16:53,385 [DEBUG] Changing transaction state from "WAITING FOR REPLY" to "PROCESSING REPLY"
2023-12-22 19:16:53,385 [DEBUG] RECV: 0x0 0x5 0x0 0x0 0x0 0x5 0x0 0x3 0x2 0x0 0x0
2023-12-22 19:16:53,385 [DEBUG] Processing: 0x0 0x5 0x0 0x0 0x0 0x5 0x0 0x3 0x2 0x0 0x0
2023-12-22 19:16:53,385 [DEBUG] Factory Response[ReadHoldingRegistersResponse': 3]
2023-12-22 19:16:53,385 [DEBUG] Adding transaction 5
2023-12-22 19:16:53,385 [DEBUG] Getting transaction 5
2023-12-22 19:16:53,385 [DEBUG] Changing transaction state from "PROCESSING REPLY" to "TRANSACTION_COMPLETE"
2023-12-22 19:16:53,385 [INFO] TRNData[SIMULATION_MODEL][outputs][x] 0.0
2023-12-22 19:16:53,385 [DEBUG] [380, 0]
2023-12-22 19:16:53,387 [DEBUG] Connection to Modbus server established. Socket ('127.0.0.1', 26490)
2023-12-22 19:16:53,387 [DEBUG] Current transaction state - IDLE
2023-12-22 19:16:53,387 [DEBUG] Running transaction 1
2023-12-22 19:16:53,387 [DEBUG] SEND: 0x0 0x1 0x0 0x0 0x0 0x9 0x0 0x10 0x0 0x0 0x0 0x1 0x2 0x1 0x7c
2023-12-22 19:16:53,387 [DEBUG] New Transaction state "SENDING"
2023-12-22 19:16:53,388 [DEBUG] Changing transaction state from "SENDING" to "WAITING FOR REPLY"
2023-12-22 19:16:53,431 [DEBUG] Changing transaction state from "WAITING FOR REPLY" to "PROCESSING REPLY"
2023-12-22 19:16:53,432 [DEBUG] RECV: 0x0 0x1 0x0 0x0 0x0 0x6 0x0 0x10 0x0 0x0 0x0 0x1
2023-12-22 19:16:53,432 [DEBUG] Processing: 0x0 0x1 0x0 0x0 0x0 0x6 0x0 0x10 0x0 0x0 0x0 0x1
2023-12-22 19:16:53,432 [DEBUG] Factory Response[WriteMultipleRegistersResponse': 16]
2023-12-22 19:16:53,432 [DEBUG] Adding transaction 1
2023-12-22 19:16:53,433 [DEBUG] Getting transaction 1
2023-12-22 19:16:53,433 [DEBUG] Changing transaction state from "PROCESSING REPLY" to "TRANSACTION_COMPLETE"
2023-12-22 19:16:53,433 [INFO] Successfully wrote 38.0 to PLC register 1 for 127.0.0.1:503
2023-12-22 19:16:53,433 [DEBUG] Current transaction state - TRANSACTION_COMPLETE
2023-12-22 19:16:53,434 [DEBUG] Running transaction 2
2023-12-22 19:16:53,434 [DEBUG] SEND: 0x0 0x2 0x0 0x0 0x0 0x9 0x0 0x10 0x0 0x1 0x0 0x1 0x2 0x0 0x0
2023-12-22 19:16:53,434 [DEBUG] New Transaction state "SENDING"
2023-12-22 19:16:53,435 [DEBUG] Changing transaction state from "SENDING" to "WAITING FOR REPLY"
2023-12-22 19:16:53,478 [DEBUG] Changing transaction state from "WAITING FOR REPLY" to "PROCESSING REPLY"
2023-12-22 19:16:53,479 [DEBUG] RECV: 0x0 0x2 0x0 0x0 0x0 0x6 0x0 0x10 0x0 0x1 0x0 0x1
2023-12-22 19:16:53,479 [DEBUG] Processing: 0x0 0x2 0x0 0x0 0x0 0x6 0x0 0x10 0x0 0x1 0x0 0x1
2023-12-22 19:16:53,480 [DEBUG] Factory Response[WriteMultipleRegistersResponse': 16]
2023-12-22 19:16:53,480 [DEBUG] Adding transaction 2
2023-12-22 19:16:53,480 [DEBUG] Getting transaction 2
2023-12-22 19:16:53,480 [DEBUG] Changing transaction state from "PROCESSING REPLY" to "TRANSACTION_COMPLETE"
2023-12-22 19:16:53,481 [INFO] Successfully wrote 0.0 to PLC register 2 for 127.0.0.1:503
2023-12-22 19:16:53,481 [INFO] server_inputs: [38.0, 0.0]
2023-12-22 19:16:54,518 [DEBUG] [65459, 65459, 65459]
2023-12-22 19:16:54,518 [DEBUG] Current transaction state - TRANSACTION_COMPLETE
2023-12-22 19:16:54,518 [DEBUG] Running transaction 6
2023-12-22 19:16:54,519 [DEBUG] SEND: 0x0 0x6 0x0 0x0 0x0 0x9 0x0 0x10 0x0 0x0 0x0 0x1 0x2 0xff 0xb3
2023-12-22 19:16:54,519 [DEBUG] New Transaction state "SENDING"
2023-12-22 19:16:54,519 [DEBUG] Changing transaction state from "SENDING" to "WAITING FOR REPLY"
2023-12-22 19:16:54,552 [DEBUG] Changing transaction state from "WAITING FOR REPLY" to "PROCESSING REPLY"
2023-12-22 19:16:54,552 [DEBUG] RECV: 0x0 0x6 0x0 0x0 0x0 0x6 0x0 0x10 0x0 0x0 0x0 0x1
2023-12-22 19:16:54,552 [DEBUG] Processing: 0x0 0x6 0x0 0x0 0x0 0x6 0x0 0x10 0x0 0x0 0x0 0x1
2023-12-22 19:16:54,552 [DEBUG] Factory Response[WriteMultipleRegistersResponse': 16]
2023-12-22 19:16:54,552 [DEBUG] Adding transaction 6
2023-12-22 19:16:54,553 [DEBUG] Getting transaction 6
2023-12-22 19:16:54,553 [DEBUG] Changing transaction state from "PROCESSING REPLY" to "TRANSACTION_COMPLETE"
2023-12-22 19:16:54,554 [INFO] Successfully wrote -7.7 to PLC register 1 for 127.0.0.1:502
2023-12-22 19:16:54,555 [DEBUG] Current transaction state - TRANSACTION_COMPLETE
2023-12-22 19:16:54,555 [DEBUG] Running transaction 7
2023-12-22 19:16:54,555 [DEBUG] SEND: 0x0 0x7 0x0 0x0 0x0 0x9 0x0 0x10 0x0 0xa 0x0 0x1 0x2 0xff 0xb3
2023-12-22 19:16:54,555 [DEBUG] New Transaction state "SENDING"
2023-12-22 19:16:54,555 [DEBUG] Changing transaction state from "SENDING" to "WAITING FOR REPLY"
2023-12-22 19:16:54,599 [DEBUG] Changing transaction state from "WAITING FOR REPLY" to "PROCESSING REPLY"
2023-12-22 19:16:54,599 [DEBUG] RECV: 0x0 0x7 0x0 0x0 0x0 0x6 0x0 0x10 0x0 0xa 0x0 0x1
2023-12-22 19:16:54,599 [DEBUG] Processing: 0x0 0x7 0x0 0x0 0x0 0x6 0x0 0x10 0x0 0xa 0x0 0x1
2023-12-22 19:16:54,599 [DEBUG] Factory Response[WriteMultipleRegistersResponse': 16]
2023-12-22 19:16:54,599 [DEBUG] Adding transaction 7
2023-12-22 19:16:54,599 [DEBUG] Getting transaction 7
2023-12-22 19:16:54,599 [DEBUG] Changing transaction state from "PROCESSING REPLY" to "TRANSACTION_COMPLETE"
2023-12-22 19:16:54,599 [INFO] Successfully wrote -7.7 to PLC register 11 for 127.0.0.1:502
2023-12-22 19:16:54,599 [DEBUG] Current transaction state - TRANSACTION_COMPLETE
2023-12-22 19:16:54,599 [DEBUG] Running transaction 8
2023-12-22 19:16:54,600 [DEBUG] SEND: 0x0 0x8 0x0 0x0 0x0 0x9 0x0 0x10 0x0 0xb 0x0 0x1 0x2 0xff 0xb3
2023-12-22 19:16:54,600 [DEBUG] New Transaction state "SENDING"
2023-12-22 19:16:54,600 [DEBUG] Changing transaction state from "SENDING" to "WAITING FOR REPLY"
2023-12-22 19:16:54,646 [DEBUG] Changing transaction state from "WAITING FOR REPLY" to "PROCESSING REPLY"
2023-12-22 19:16:54,646 [DEBUG] RECV: 0x0 0x8 0x0 0x0 0x0 0x6 0x0 0x10 0x0 0xb 0x0 0x1
2023-12-22 19:16:54,646 [DEBUG] Processing: 0x0 0x8 0x0 0x0 0x0 0x6 0x0 0x10 0x0 0xb 0x0 0x1
2023-12-22 19:16:54,646 [DEBUG] Factory Response[WriteMultipleRegistersResponse': 16]
2023-12-22 19:16:54,646 [DEBUG] Adding transaction 8
2023-12-22 19:16:54,646 [DEBUG] Getting transaction 8
2023-12-22 19:16:54,647 [DEBUG] Changing transaction state from "PROCESSING REPLY" to "TRANSACTION_COMPLETE"
2023-12-22 19:16:54,647 [INFO] Successfully wrote -7.7 to PLC register 12 for 127.0.0.1:502
2023-12-22 19:16:54,647 [DEBUG] Current transaction state - TRANSACTION_COMPLETE
2023-12-22 19:16:54,647 [DEBUG] Running transaction 9
2023-12-22 19:16:54,647 [DEBUG] SEND: 0x0 0x9 0x0 0x0 0x0 0x6 0x0 0x3 0x0 0x4 0x0 0x1
2023-12-22 19:16:54,647 [DEBUG] New Transaction state "SENDING"
2023-12-22 19:16:54,647 [DEBUG] Changing transaction state from "SENDING" to "WAITING FOR REPLY"
2023-12-22 19:16:54,692 [DEBUG] Changing transaction state from "WAITING FOR REPLY" to "PROCESSING REPLY"
2023-12-22 19:16:54,692 [DEBUG] RECV: 0x0 0x9 0x0 0x0 0x0 0x5 0x0 0x3 0x2 0x0 0x14
2023-12-22 19:16:54,692 [DEBUG] Processing: 0x0 0x9 0x0 0x0 0x0 0x5 0x0 0x3 0x2 0x0 0x14
2023-12-22 19:16:54,692 [DEBUG] Factory Response[ReadHoldingRegistersResponse': 3]
2023-12-22 19:16:54,692 [DEBUG] Adding transaction 9
2023-12-22 19:16:54,692 [DEBUG] Getting transaction 9
2023-12-22 19:16:54,692 [DEBUG] Changing transaction state from "PROCESSING REPLY" to "TRANSACTION_COMPLETE"
2023-12-22 19:16:54,693 [DEBUG] Current transaction state - TRANSACTION_COMPLETE
2023-12-22 19:16:54,693 [DEBUG] Running transaction 10
2023-12-22 19:16:54,693 [DEBUG] SEND: 0x0 0xa 0x0 0x0 0x0 0x6 0x0 0x3 0x0 0x5 0x0 0x1
2023-12-22 19:16:54,693 [DEBUG] New Transaction state "SENDING"
2023-12-22 19:16:54,693 [DEBUG] Changing transaction state from "SENDING" to "WAITING FOR REPLY"
2023-12-22 19:16:54,739 [DEBUG] Changing transaction state from "WAITING FOR REPLY" to "PROCESSING REPLY"
2023-12-22 19:16:54,739 [DEBUG] RECV: 0x0 0xa 0x0 0x0 0x0 0x5 0x0 0x3 0x2 0x0 0x0
2023-12-22 19:16:54,739 [DEBUG] Processing: 0x0 0xa 0x0 0x0 0x0 0x5 0x0 0x3 0x2 0x0 0x0
2023-12-22 19:16:54,740 [DEBUG] Factory Response[ReadHoldingRegistersResponse': 3]
2023-12-22 19:16:54,740 [DEBUG] Adding transaction 10
2023-12-22 19:16:54,740 [DEBUG] Getting transaction 10
2023-12-22 19:16:54,740 [DEBUG] Changing transaction state from "PROCESSING REPLY" to "TRANSACTION_COMPLETE"
2023-12-22 19:16:54,740 [INFO] TRNData[SIMULATION_MODEL][outputs][x] 0.0
2023-12-22 19:16:54,740 [DEBUG] [380, 0]
2023-12-22 19:16:54,740 [DEBUG] Current transaction state - TRANSACTION_COMPLETE
2023-12-22 19:16:54,740 [DEBUG] Running transaction 3
2023-12-22 19:16:54,740 [DEBUG] SEND: 0x0 0x3 0x0 0x0 0x0 0x9 0x0 0x10 0x0 0x0 0x0 0x1 0x2 0x1 0x7c
2023-12-22 19:16:54,741 [DEBUG] New Transaction state "SENDING"
2023-12-22 19:16:54,741 [DEBUG] Changing transaction state from "SENDING" to "WAITING FOR REPLY"
2023-12-22 19:16:54,787 [DEBUG] Changing transaction state from "WAITING FOR REPLY" to "PROCESSING REPLY"
2023-12-22 19:16:54,788 [DEBUG] RECV: 0x0 0x3 0x0 0x0 0x0 0x6 0x0 0x10 0x0 0x0 0x0 0x1
2023-12-22 19:16:54,788 [DEBUG] Processing: 0x0 0x3 0x0 0x0 0x0 0x6 0x0 0x10 0x0 0x0 0x0 0x1
2023-12-22 19:16:54,789 [DEBUG] Factory Response[WriteMultipleRegistersResponse': 16]
2023-12-22 19:16:54,789 [DEBUG] Adding transaction 3
2023-12-22 19:16:54,789 [DEBUG] Getting transaction 3
2023-12-22 19:16:54,789 [DEBUG] Changing transaction state from "PROCESSING REPLY" to "TRANSACTION_COMPLETE"
2023-12-22 19:16:54,790 [INFO] Successfully wrote 38.0 to PLC register 1 for 127.0.0.1:503
2023-12-22 19:16:54,790 [DEBUG] Current transaction state - TRANSACTION_COMPLETE
2023-12-22 19:16:54,790 [DEBUG] Running transaction 4
2023-12-22 19:16:54,791 [DEBUG] SEND: 0x0 0x4 0x0 0x0 0x0 0x9 0x0 0x10 0x0 0x1 0x0 0x1 0x2 0x0 0x0
2023-12-22 19:16:54,791 [DEBUG] New Transaction state "SENDING"
2023-12-22 19:16:54,791 [DEBUG] Changing transaction state from "SENDING" to "WAITING FOR REPLY"
2023-12-22 19:16:54,833 [DEBUG] Changing transaction state from "WAITING FOR REPLY" to "PROCESSING REPLY"
2023-12-22 19:16:54,834 [DEBUG] RECV: 0x0 0x4 0x0 0x0 0x0 0x6 0x0 0x10 0x0 0x1 0x0 0x1
2023-12-22 19:16:54,834 [DEBUG] Processing: 0x0 0x4 0x0 0x0 0x0 0x6 0x0 0x10 0x0 0x1 0x0 0x1
2023-12-22 19:16:54,835 [DEBUG] Factory Response[WriteMultipleRegistersResponse': 16]
2023-12-22 19:16:54,835 [DEBUG] Adding transaction 4
2023-12-22 19:16:54,835 [DEBUG] Getting transaction 4
2023-12-22 19:16:54,835 [DEBUG] Changing transaction state from "PROCESSING REPLY" to "TRANSACTION_COMPLETE"
2023-12-22 19:16:54,836 [INFO] Successfully wrote 0.0 to PLC register 2 for 127.0.0.1:503
2023-12-22 19:16:54,836 [INFO] server_inputs: [38.0, 0.0]
2023-12-22 19:16:55,859 [DEBUG] [65459, 65459, 65459]
2023-12-22 19:16:55,859 [DEBUG] Current transaction state - TRANSACTION_COMPLETE
2023-12-22 19:16:55,859 [DEBUG] Running transaction 11
2023-12-22 19:16:55,859 [DEBUG] SEND: 0x0 0xb 0x0 0x0 0x0 0x9 0x0 0x10 0x0 0x0 0x0 0x1 0x2 0xff 0xb3
2023-12-22 19:16:55,859 [DEBUG] New Transaction state "SENDING"
2023-12-22 19:16:55,859 [DEBUG] Changing transaction state from "SENDING" to "WAITING FOR REPLY"
2023-12-22 19:16:55,904 [DEBUG] Changing transaction state from "WAITING FOR REPLY" to "PROCESSING REPLY"
2023-12-22 19:16:55,904 [DEBUG] RECV: 0x0 0xb 0x0 0x0 0x0 0x6 0x0 0x10 0x0 0x0 0x0 0x1
2023-12-22 19:16:55,904 [DEBUG] Processing: 0x0 0xb 0x0 0x0 0x0 0x6 0x0 0x10 0x0 0x0 0x0 0x1
2023-12-22 19:16:55,904 [DEBUG] Factory Response[WriteMultipleRegistersResponse': 16]
2023-12-22 19:16:55,904 [DEBUG] Adding transaction 11
2023-12-22 19:16:55,904 [DEBUG] Getting transaction 11
2023-12-22 19:16:55,904 [DEBUG] Changing transaction state from "PROCESSING REPLY" to "TRANSACTION_COMPLETE"
2023-12-22 19:16:55,904 [INFO] Successfully wrote -7.7 to PLC register 1 for 127.0.0.1:502
2023-12-22 19:16:55,904 [DEBUG] Current transaction state - TRANSACTION_COMPLETE
2023-12-22 19:16:55,904 [DEBUG] Running transaction 12
2023-12-22 19:16:55,905 [DEBUG] SEND: 0x0 0xc 0x0 0x0 0x0 0x9 0x0 0x10 0x0 0xa 0x0 0x1 0x2 0xff 0xb3
2023-12-22 19:16:55,905 [DEBUG] New Transaction state "SENDING"
2023-12-22 19:16:55,905 [DEBUG] Changing transaction state from "SENDING" to "WAITING FOR REPLY"
2023-12-22 19:16:55,951 [DEBUG] Changing transaction state from "WAITING FOR REPLY" to "PROCESSING REPLY"
2023-12-22 19:16:55,951 [DEBUG] RECV: 0x0 0xc 0x0 0x0 0x0 0x6 0x0 0x10 0x0 0xa 0x0 0x1
2023-12-22 19:16:55,952 [DEBUG] Processing: 0x0 0xc 0x0 0x0 0x0 0x6 0x0 0x10 0x0 0xa 0x0 0x1
2023-12-22 19:16:55,952 [DEBUG] Factory Response[WriteMultipleRegistersResponse': 16]
2023-12-22 19:16:55,952 [DEBUG] Adding transaction 12
2023-12-22 19:16:55,952 [DEBUG] Getting transaction 12
2023-12-22 19:16:55,952 [DEBUG] Changing transaction state from "PROCESSING REPLY" to "TRANSACTION_COMPLETE"
2023-12-22 19:16:55,952 [INFO] Successfully wrote -7.7 to PLC register 11 for 127.0.0.1:502
2023-12-22 19:16:55,952 [DEBUG] Current transaction state - TRANSACTION_COMPLETE
2023-12-22 19:16:55,952 [DEBUG] Running transaction 13
2023-12-22 19:16:55,952 [DEBUG] SEND: 0x0 0xd 0x0 0x0 0x0 0x9 0x0 0x10 0x0 0xb 0x0 0x1 0x2 0xff 0xb3
2023-12-22 19:16:55,952 [DEBUG] New Transaction state "SENDING"
2023-12-22 19:16:55,952 [DEBUG] Changing transaction state from "SENDING" to "WAITING FOR REPLY"
2023-12-22 19:16:55,997 [DEBUG] Changing transaction state from "WAITING FOR REPLY" to "PROCESSING REPLY"
2023-12-22 19:16:55,997 [DEBUG] RECV: 0x0 0xd 0x0 0x0 0x0 0x6 0x0 0x10 0x0 0xb 0x0 0x1
2023-12-22 19:16:55,997 [DEBUG] Processing: 0x0 0xd 0x0 0x0 0x0 0x6 0x0 0x10 0x0 0xb 0x0 0x1
2023-12-22 19:16:55,997 [DEBUG] Factory Response[WriteMultipleRegistersResponse': 16]
2023-12-22 19:16:55,997 [DEBUG] Adding transaction 13
2023-12-22 19:16:55,997 [DEBUG] Getting transaction 13
2023-12-22 19:16:55,997 [DEBUG] Changing transaction state from "PROCESSING REPLY" to "TRANSACTION_COMPLETE"
2023-12-22 19:16:55,998 [INFO] Successfully wrote -7.7 to PLC register 12 for 127.0.0.1:502
2023-12-22 19:16:55,998 [DEBUG] Current transaction state - TRANSACTION_COMPLETE
2023-12-22 19:16:55,998 [DEBUG] Running transaction 14
2023-12-22 19:16:55,998 [DEBUG] SEND: 0x0 0xe 0x0 0x0 0x0 0x6 0x0 0x3 0x0 0x4 0x0 0x1
2023-12-22 19:16:55,998 [DEBUG] New Transaction state "SENDING"
2023-12-22 19:16:55,998 [DEBUG] Changing transaction state from "SENDING" to "WAITING FOR REPLY"
2023-12-22 19:16:56,043 [DEBUG] Changing transaction state from "WAITING FOR REPLY" to "PROCESSING REPLY"
2023-12-22 19:16:56,043 [DEBUG] RECV: 0x0 0xe 0x0 0x0 0x0 0x5 0x0 0x3 0x2 0x0 0x14
2023-12-22 19:16:56,043 [DEBUG] Processing: 0x0 0xe 0x0 0x0 0x0 0x5 0x0 0x3 0x2 0x0 0x14
2023-12-22 19:16:56,043 [DEBUG] Factory Response[ReadHoldingRegistersResponse': 3]
2023-12-22 19:16:56,043 [DEBUG] Adding transaction 14
2023-12-22 19:16:56,044 [DEBUG] Getting transaction 14
2023-12-22 19:16:56,044 [DEBUG] Changing transaction state from "PROCESSING REPLY" to "TRANSACTION_COMPLETE"
2023-12-22 19:16:56,044 [DEBUG] Current transaction state - TRANSACTION_COMPLETE
2023-12-22 19:16:56,044 [DEBUG] Running transaction 15
2023-12-22 19:16:56,044 [DEBUG] SEND: 0x0 0xf 0x0 0x0 0x0 0x6 0x0 0x3 0x0 0x5 0x0 0x1
2023-12-22 19:16:56,044 [DEBUG] New Transaction state "SENDING"
2023-12-22 19:16:56,044 [DEBUG] Changing transaction state from "SENDING" to "WAITING FOR REPLY"
2023-12-22 19:16:56,090 [DEBUG] Changing transaction state from "WAITING FOR REPLY" to "PROCESSING REPLY"
2023-12-22 19:16:56,090 [DEBUG] RECV: 0x0 0xf 0x0 0x0 0x0 0x5 0x0 0x3 0x2 0x0 0x0
2023-12-22 19:16:56,090 [DEBUG] Processing: 0x0 0xf 0x0 0x0 0x0 0x5 0x0 0x3 0x2 0x0 0x0
2023-12-22 19:16:56,090 [DEBUG] Factory Response[ReadHoldingRegistersResponse': 3]
2023-12-22 19:16:56,090 [DEBUG] Adding transaction 15
2023-12-22 19:16:56,090 [DEBUG] Getting transaction 15
2023-12-22 19:16:56,090 [DEBUG] Changing transaction state from "PROCESSING REPLY" to "TRANSACTION_COMPLETE"
2023-12-22 19:16:56,091 [INFO] TRNData[SIMULATION_MODEL][outputs][x] 0.0
2023-12-22 19:16:56,091 [DEBUG] [380, 0]
2023-12-22 19:16:56,091 [DEBUG] Current transaction state - TRANSACTION_COMPLETE
2023-12-22 19:16:56,091 [DEBUG] Running transaction 5
2023-12-22 19:16:56,091 [DEBUG] SEND: 0x0 0x5 0x0 0x0 0x0 0x9 0x0 0x10 0x0 0x0 0x0 0x1 0x2 0x1 0x7c
2023-12-22 19:16:56,091 [DEBUG] New Transaction state "SENDING"
2023-12-22 19:16:56,091 [DEBUG] Changing transaction state from "SENDING" to "WAITING FOR REPLY"
2023-12-22 19:16:56,138 [DEBUG] Changing transaction state from "WAITING FOR REPLY" to "PROCESSING REPLY"
2023-12-22 19:16:56,138 [DEBUG] RECV: 0x0 0x5 0x0 0x0 0x0 0x6 0x0 0x10 0x0 0x0 0x0 0x1
2023-12-22 19:16:56,138 [DEBUG] Processing: 0x0 0x5 0x0 0x0 0x0 0x6 0x0 0x10 0x0 0x0 0x0 0x1
2023-12-22 19:16:56,138 [DEBUG] Factory Response[WriteMultipleRegistersResponse': 16]
2023-12-22 19:16:56,138 [DEBUG] Adding transaction 5
2023-12-22 19:16:56,138 [DEBUG] Getting transaction 5
2023-12-22 19:16:56,139 [DEBUG] Changing transaction state from "PROCESSING REPLY" to "TRANSACTION_COMPLETE"
2023-12-22 19:16:56,139 [INFO] Successfully wrote 38.0 to PLC register 1 for 127.0.0.1:503
2023-12-22 19:16:56,139 [DEBUG] Current transaction state - TRANSACTION_COMPLETE
2023-12-22 19:16:56,139 [DEBUG] Running transaction 6
2023-12-22 19:16:56,139 [DEBUG] SEND: 0x0 0x6 0x0 0x0 0x0 0x9 0x0 0x10 0x0 0x1 0x0 0x1 0x2 0x0 0x0
2023-12-22 19:16:56,140 [DEBUG] New Transaction state "SENDING"
2023-12-22 19:16:56,140 [DEBUG] Changing transaction state from "SENDING" to "WAITING FOR REPLY"
2023-12-22 19:16:56,185 [DEBUG] Changing transaction state from "WAITING FOR REPLY" to "PROCESSING REPLY"
2023-12-22 19:16:56,185 [DEBUG] RECV: 0x0 0x6 0x0 0x0 0x0 0x6 0x0 0x10 0x0 0x1 0x0 0x1
2023-12-22 19:16:56,185 [DEBUG] Processing: 0x0 0x6 0x0 0x0 0x0 0x6 0x0 0x10 0x0 0x1 0x0 0x1
2023-12-22 19:16:56,185 [DEBUG] Factory Response[WriteMultipleRegistersResponse': 16]
2023-12-22 19:16:56,186 [DEBUG] Adding transaction 6
2023-12-22 19:16:56,186 [DEBUG] Getting transaction 6
2023-12-22 19:16:56,186 [DEBUG] Changing transaction state from "PROCESSING REPLY" to "TRANSACTION_COMPLETE"
2023-12-22 19:16:56,186 [INFO] Successfully wrote 0.0 to PLC register 2 for 127.0.0.1:503
2023-12-22 19:16:56,186 [INFO] server_inputs: [38.0, 0.0]
2023-12-22 19:16:57,222 [DEBUG] [65459, 65459, 65459]
2023-12-22 19:16:57,222 [DEBUG] Current transaction state - TRANSACTION_COMPLETE
2023-12-22 19:16:57,222 [DEBUG] Running transaction 16
2023-12-22 19:16:57,222 [DEBUG] SEND: 0x0 0x10 0x0 0x0 0x0 0x9 0x0 0x10 0x0 0x0 0x0 0x1 0x2 0xff 0xb3
2023-12-22 19:16:57,222 [DEBUG] New Transaction state "SENDING"
2023-12-22 19:16:57,222 [DEBUG] Changing transaction state from "SENDING" to "WAITING FOR REPLY"
2023-12-22 19:16:57,262 [DEBUG] Changing transaction state from "WAITING FOR REPLY" to "PROCESSING REPLY"
2023-12-22 19:16:57,262 [DEBUG] RECV: 0x0 0x10 0x0 0x0 0x0 0x6 0x0 0x10 0x0 0x0 0x0 0x1
2023-12-22 19:16:57,262 [DEBUG] Processing: 0x0 0x10 0x0 0x0 0x0 0x6 0x0 0x10 0x0 0x0 0x0 0x1
2023-12-22 19:16:57,262 [DEBUG] Factory Response[WriteMultipleRegistersResponse': 16]
2023-12-22 19:16:57,262 [DEBUG] Adding transaction 16
2023-12-22 19:16:57,262 [DEBUG] Getting transaction 16
2023-12-22 19:16:57,262 [DEBUG] Changing transaction state from "PROCESSING REPLY" to "TRANSACTION_COMPLETE"
2023-12-22 19:16:57,262 [INFO] Successfully wrote -7.7 to PLC register 1 for 127.0.0.1:502
2023-12-22 19:16:57,263 [DEBUG] Current transaction state - TRANSACTION_COMPLETE
2023-12-22 19:16:57,263 [DEBUG] Running transaction 17
2023-12-22 19:16:57,263 [DEBUG] SEND: 0x0 0x11 0x0 0x0 0x0 0x9 0x0 0x10 0x0 0xa 0x0 0x1 0x2 0xff 0xb3
2023-12-22 19:16:57,263 [DEBUG] New Transaction state "SENDING"
2023-12-22 19:16:57,263 [DEBUG] Changing transaction state from "SENDING" to "WAITING FOR REPLY"
2023-12-22 19:16:57,309 [DEBUG] Changing transaction state from "WAITING FOR REPLY" to "PROCESSING REPLY"
2023-12-22 19:16:57,309 [DEBUG] RECV: 0x0 0x11 0x0 0x0 0x0 0x6 0x0 0x10 0x0 0xa 0x0 0x1
2023-12-22 19:16:57,310 [DEBUG] Processing: 0x0 0x11 0x0 0x0 0x0 0x6 0x0 0x10 0x0 0xa 0x0 0x1
2023-12-22 19:16:57,310 [DEBUG] Factory Response[WriteMultipleRegistersResponse': 16]
2023-12-22 19:16:57,310 [DEBUG] Adding transaction 17
2023-12-22 19:16:57,310 [DEBUG] Getting transaction 17
2023-12-22 19:16:57,310 [DEBUG] Changing transaction state from "PROCESSING REPLY" to "TRANSACTION_COMPLETE"
2023-12-22 19:16:57,310 [INFO] Successfully wrote -7.7 to PLC register 11 for 127.0.0.1:502
2023-12-22 19:16:57,310 [DEBUG] Current transaction state - TRANSACTION_COMPLETE
2023-12-22 19:16:57,311 [DEBUG] Running transaction 18
2023-12-22 19:16:57,311 [DEBUG] SEND: 0x0 0x12 0x0 0x0 0x0 0x9 0x0 0x10 0x0 0xb 0x0 0x1 0x2 0xff 0xb3
2023-12-22 19:16:57,311 [DEBUG] New Transaction state "SENDING"
2023-12-22 19:16:57,311 [DEBUG] Changing transaction state from "SENDING" to "WAITING FOR REPLY"
2023-12-22 19:16:57,356 [DEBUG] Changing transaction state from "WAITING FOR REPLY" to "PROCESSING REPLY"
2023-12-22 19:16:57,356 [DEBUG] RECV: 0x0 0x12 0x0 0x0 0x0 0x6 0x0 0x10 0x0 0xb 0x0 0x1
2023-12-22 19:16:57,356 [DEBUG] Processing: 0x0 0x12 0x0 0x0 0x0 0x6 0x0 0x10 0x0 0xb 0x0 0x1
2023-12-22 19:16:57,356 [DEBUG] Factory Response[WriteMultipleRegistersResponse': 16]
2023-12-22 19:16:57,357 [DEBUG] Adding transaction 18
2023-12-22 19:16:57,357 [DEBUG] Getting transaction 18
2023-12-22 19:16:57,357 [DEBUG] Changing transaction state from "PROCESSING REPLY" to "TRANSACTION_COMPLETE"
2023-12-22 19:16:57,357 [INFO] Successfully wrote -7.7 to PLC register 12 for 127.0.0.1:502
2023-12-22 19:16:57,357 [DEBUG] Current transaction state - TRANSACTION_COMPLETE
2023-12-22 19:16:57,357 [DEBUG] Running transaction 19
2023-12-22 19:16:57,357 [DEBUG] SEND: 0x0 0x13 0x0 0x0 0x0 0x6 0x0 0x3 0x0 0x4 0x0 0x1
2023-12-22 19:16:57,357 [DEBUG] New Transaction state "SENDING"
2023-12-22 19:16:57,358 [DEBUG] Changing transaction state from "SENDING" to "WAITING FOR REPLY"
2023-12-22 19:16:57,403 [DEBUG] Changing transaction state from "WAITING FOR REPLY" to "PROCESSING REPLY"
2023-12-22 19:16:57,403 [DEBUG] RECV: 0x0 0x13 0x0 0x0 0x0 0x5 0x0 0x3 0x2 0x0 0x14
2023-12-22 19:16:57,403 [DEBUG] Processing: 0x0 0x13 0x0 0x0 0x0 0x5 0x0 0x3 0x2 0x0 0x14
2023-12-22 19:16:57,403 [DEBUG] Factory Response[ReadHoldingRegistersResponse': 3]
2023-12-22 19:16:57,403 [DEBUG] Adding transaction 19
2023-12-22 19:16:57,403 [DEBUG] Getting transaction 19
2023-12-22 19:16:57,403 [DEBUG] Changing transaction state from "PROCESSING REPLY" to "TRANSACTION_COMPLETE"
2023-12-22 19:16:57,403 [DEBUG] Current transaction state - TRANSACTION_COMPLETE
2023-12-22 19:16:57,403 [DEBUG] Running transaction 20
2023-12-22 19:16:57,404 [DEBUG] SEND: 0x0 0x14 0x0 0x0 0x0 0x6 0x0 0x3 0x0 0x5 0x0 0x1
2023-12-22 19:16:57,404 [DEBUG] New Transaction state "SENDING"
2023-12-22 19:16:57,404 [DEBUG] Changing transaction state from "SENDING" to "WAITING FOR REPLY"
2023-12-22 19:16:57,450 [DEBUG] Changing transaction state from "WAITING FOR REPLY" to "PROCESSING REPLY"
2023-12-22 19:16:57,450 [DEBUG] RECV: 0x0 0x14 0x0 0x0 0x0 0x5 0x0 0x3 0x2 0x0 0x0
2023-12-22 19:16:57,450 [DEBUG] Processing: 0x0 0x14 0x0 0x0 0x0 0x5 0x0 0x3 0x2 0x0 0x0
2023-12-22 19:16:57,450 [DEBUG] Factory Response[ReadHoldingRegistersResponse': 3]
2023-12-22 19:16:57,450 [DEBUG] Adding transaction 20
2023-12-22 19:16:57,450 [DEBUG] Getting transaction 20
2023-12-22 19:16:57,450 [DEBUG] Changing transaction state from "PROCESSING REPLY" to "TRANSACTION_COMPLETE"
2023-12-22 19:16:57,451 [INFO] TRNData[SIMULATION_MODEL][outputs][x] 0.0
2023-12-22 19:16:57,451 [DEBUG] [380, 0]
2023-12-22 19:16:57,451 [DEBUG] Current transaction state - TRANSACTION_COMPLETE
2023-12-22 19:16:57,451 [DEBUG] Running transaction 7
2023-12-22 19:16:57,451 [DEBUG] SEND: 0x0 0x7 0x0 0x0 0x0 0x9 0x0 0x10 0x0 0x0 0x0 0x1 0x2 0x1 0x7c
2023-12-22 19:16:57,451 [DEBUG] New Transaction state "SENDING"
2023-12-22 19:16:57,451 [DEBUG] Changing transaction state from "SENDING" to "WAITING FOR REPLY"
2023-12-22 19:16:57,498 [DEBUG] Changing transaction state from "WAITING FOR REPLY" to "PROCESSING REPLY"
2023-12-22 19:16:57,498 [DEBUG] RECV: 0x0 0x7 0x0 0x0 0x0 0x6 0x0 0x10 0x0 0x0 0x0 0x1
2023-12-22 19:16:57,498 [DEBUG] Processing: 0x0 0x7 0x0 0x0 0x0 0x6 0x0 0x10 0x0 0x0 0x0 0x1
2023-12-22 19:16:57,499 [DEBUG] Factory Response[WriteMultipleRegistersResponse': 16]
2023-12-22 19:16:57,499 [DEBUG] Adding transaction 7
2023-12-22 19:16:57,499 [DEBUG] Getting transaction 7
2023-12-22 19:16:57,499 [DEBUG] Changing transaction state from "PROCESSING REPLY" to "TRANSACTION_COMPLETE"
2023-12-22 19:16:57,499 [INFO] Successfully wrote 38.0 to PLC register 1 for 127.0.0.1:503
2023-12-22 19:16:57,499 [DEBUG] Current transaction state - TRANSACTION_COMPLETE
2023-12-22 19:16:57,499 [DEBUG] Running transaction 8
2023-12-22 19:16:57,499 [DEBUG] SEND: 0x0 0x8 0x0 0x0 0x0 0x9 0x0 0x10 0x0 0x1 0x0 0x1 0x2 0x0 0x0
2023-12-22 19:16:57,499 [DEBUG] New Transaction state "SENDING"
2023-12-22 19:16:57,499 [DEBUG] Changing transaction state from "SENDING" to "WAITING FOR REPLY"
2023-12-22 19:16:57,544 [DEBUG] Changing transaction state from "WAITING FOR REPLY" to "PROCESSING REPLY"
2023-12-22 19:16:57,544 [DEBUG] RECV: 0x0 0x8 0x0 0x0 0x0 0x6 0x0 0x10 0x0 0x1 0x0 0x1
2023-12-22 19:16:57,544 [DEBUG] Processing: 0x0 0x8 0x0 0x0 0x0 0x6 0x0 0x10 0x0 0x1 0x0 0x1
2023-12-22 19:16:57,544 [DEBUG] Factory Response[WriteMultipleRegistersResponse': 16]
2023-12-22 19:16:57,545 [DEBUG] Adding transaction 8
2023-12-22 19:16:57,545 [DEBUG] Getting transaction 8
2023-12-22 19:16:57,545 [DEBUG] Changing transaction state from "PROCESSING REPLY" to "TRANSACTION_COMPLETE"
2023-12-22 19:16:57,545 [INFO] Successfully wrote 0.0 to PLC register 2 for 127.0.0.1:503
2023-12-22 19:16:57,545 [INFO] server_inputs: [38.0, 0.0]
2023-12-22 19:16:58,574 [DEBUG] [65459, 65459, 65459]
2023-12-22 19:16:58,574 [DEBUG] Current transaction state - TRANSACTION_COMPLETE
2023-12-22 19:16:58,574 [DEBUG] Running transaction 21
2023-12-22 19:16:58,574 [DEBUG] SEND: 0x0 0x15 0x0 0x0 0x0 0x9 0x0 0x10 0x0 0x0 0x0 0x1 0x2 0xff 0xb3
2023-12-22 19:16:58,574 [DEBUG] New Transaction state "SENDING"
2023-12-22 19:16:58,574 [DEBUG] Changing transaction state from "SENDING" to "WAITING FOR REPLY"
2023-12-22 19:16:58,620 [DEBUG] Changing transaction state from "WAITING FOR REPLY" to "PROCESSING REPLY"
2023-12-22 19:16:58,620 [DEBUG] RECV: 0x0 0x15 0x0 0x0 0x0 0x6 0x0 0x10 0x0 0x0 0x0 0x1
2023-12-22 19:16:58,620 [DEBUG] Processing: 0x0 0x15 0x0 0x0 0x0 0x6 0x0 0x10 0x0 0x0 0x0 0x1
2023-12-22 19:16:58,620 [DEBUG] Factory Response[WriteMultipleRegistersResponse': 16]
2023-12-22 19:16:58,620 [DEBUG] Adding transaction 21
2023-12-22 19:16:58,620 [DEBUG] Getting transaction 21
2023-12-22 19:16:58,620 [DEBUG] Changing transaction state from "PROCESSING REPLY" to "TRANSACTION_COMPLETE"
2023-12-22 19:16:58,621 [INFO] Successfully wrote -7.7 to PLC register 1 for 127.0.0.1:502
2023-12-22 19:16:58,621 [DEBUG] Current transaction state - TRANSACTION_COMPLETE
2023-12-22 19:16:58,621 [DEBUG] Running transaction 22
2023-12-22 19:16:58,621 [DEBUG] SEND: 0x0 0x16 0x0 0x0 0x0 0x9 0x0 0x10 0x0 0xa 0x0 0x1 0x2 0xff 0xb3
2023-12-22 19:16:58,621 [DEBUG] New Transaction state "SENDING"
2023-12-22 19:16:58,621 [DEBUG] Changing transaction state from "SENDING" to "WAITING FOR REPLY"
2023-12-22 19:16:58,667 [DEBUG] Changing transaction state from "WAITING FOR REPLY" to "PROCESSING REPLY"
2023-12-22 19:16:58,667 [DEBUG] RECV: 0x0 0x16 0x0 0x0 0x0 0x6 0x0 0x10 0x0 0xa 0x0 0x1
2023-12-22 19:16:58,667 [DEBUG] Processing: 0x0 0x16 0x0 0x0 0x0 0x6 0x0 0x10 0x0 0xa 0x0 0x1
2023-12-22 19:16:58,667 [DEBUG] Factory Response[WriteMultipleRegistersResponse': 16]
2023-12-22 19:16:58,667 [DEBUG] Adding transaction 22
2023-12-22 19:16:58,667 [DEBUG] Getting transaction 22
2023-12-22 19:16:58,668 [DEBUG] Changing transaction state from "PROCESSING REPLY" to "TRANSACTION_COMPLETE"
2023-12-22 19:16:58,668 [INFO] Successfully wrote -7.7 to PLC register 11 for 127.0.0.1:502
2023-12-22 19:16:58,668 [DEBUG] Current transaction state - TRANSACTION_COMPLETE
2023-12-22 19:16:58,668 [DEBUG] Running transaction 23
2023-12-22 19:16:58,668 [DEBUG] SEND: 0x0 0x17 0x0 0x0 0x0 0x9 0x0 0x10 0x0 0xb 0x0 0x1 0x2 0xff 0xb3
2023-12-22 19:16:58,668 [DEBUG] New Transaction state "SENDING"
2023-12-22 19:16:58,668 [DEBUG] Changing transaction state from "SENDING" to "WAITING FOR REPLY"
2023-12-22 19:16:58,714 [DEBUG] Changing transaction state from "WAITING FOR REPLY" to "PROCESSING REPLY"
2023-12-22 19:16:58,714 [DEBUG] RECV: 0x0 0x17 0x0 0x0 0x0 0x6 0x0 0x10 0x0 0xb 0x0 0x1
2023-12-22 19:16:58,714 [DEBUG] Processing: 0x0 0x17 0x0 0x0 0x0 0x6 0x0 0x10 0x0 0xb 0x0 0x1
2023-12-22 19:16:58,714 [DEBUG] Factory Response[WriteMultipleRegistersResponse': 16]
2023-12-22 19:16:58,714 [DEBUG] Adding transaction 23
2023-12-22 19:16:58,715 [DEBUG] Getting transaction 23
2023-12-22 19:16:58,715 [DEBUG] Changing transaction state from "PROCESSING REPLY" to "TRANSACTION_COMPLETE"
2023-12-22 19:16:58,715 [INFO] Successfully wrote -7.7 to PLC register 12 for 127.0.0.1:502
2023-12-22 19:16:58,715 [DEBUG] Current transaction state - TRANSACTION_COMPLETE
2023-12-22 19:16:58,715 [DEBUG] Running transaction 24
2023-12-22 19:16:58,715 [DEBUG] SEND: 0x0 0x18 0x0 0x0 0x0 0x6 0x0 0x3 0x0 0x4 0x0 0x1
2023-12-22 19:16:58,715 [DEBUG] New Transaction state "SENDING"
2023-12-22 19:16:58,715 [DEBUG] Changing transaction state from "SENDING" to "WAITING FOR REPLY"
2023-12-22 19:16:58,761 [DEBUG] Changing transaction state from "WAITING FOR REPLY" to "PROCESSING REPLY"
2023-12-22 19:16:58,761 [DEBUG] RECV: 0x0 0x18 0x0 0x0 0x0 0x5 0x0 0x3 0x2 0x0 0x14
2023-12-22 19:16:58,761 [DEBUG] Processing: 0x0 0x18 0x0 0x0 0x0 0x5 0x0 0x3 0x2 0x0 0x14
2023-12-22 19:16:58,761 [DEBUG] Factory Response[ReadHoldingRegistersResponse': 3]
2023-12-22 19:16:58,762 [DEBUG] Adding transaction 24
2023-12-22 19:16:58,762 [DEBUG] Getting transaction 24
2023-12-22 19:16:58,762 [DEBUG] Changing transaction state from "PROCESSING REPLY" to "TRANSACTION_COMPLETE"
2023-12-22 19:16:58,762 [DEBUG] Current transaction state - TRANSACTION_COMPLETE
2023-12-22 19:16:58,762 [DEBUG] Running transaction 25
2023-12-22 19:16:58,762 [DEBUG] SEND: 0x0 0x19 0x0 0x0 0x0 0x6 0x0 0x3 0x0 0x5 0x0 0x1
2023-12-22 19:16:58,762 [DEBUG] New Transaction state "SENDING"
2023-12-22 19:16:58,762 [DEBUG] Changing transaction state from "SENDING" to "WAITING FOR REPLY"
2023-12-22 19:16:58,809 [DEBUG] Changing transaction state from "WAITING FOR REPLY" to "PROCESSING REPLY"
2023-12-22 19:16:58,810 [DEBUG] RECV: 0x0 0x19 0x0 0x0 0x0 0x5 0x0 0x3 0x2 0x0 0x0
2023-12-22 19:16:58,810 [DEBUG] Processing: 0x0 0x19 0x0 0x0 0x0 0x5 0x0 0x3 0x2 0x0 0x0
2023-12-22 19:16:58,811 [DEBUG] Factory Response[ReadHoldingRegistersResponse': 3]
2023-12-22 19:16:58,811 [DEBUG] Adding transaction 25
2023-12-22 19:16:58,811 [DEBUG] Getting transaction 25
2023-12-22 19:16:58,811 [DEBUG] Changing transaction state from "PROCESSING REPLY" to "TRANSACTION_COMPLETE"
2023-12-22 19:16:58,812 [INFO] TRNData[SIMULATION_MODEL][outputs][x] 0.0
2023-12-22 19:16:58,812 [DEBUG] [380, 0]
2023-12-22 19:16:58,812 [DEBUG] Current transaction state - TRANSACTION_COMPLETE
2023-12-22 19:16:58,813 [DEBUG] Running transaction 9
2023-12-22 19:16:58,813 [DEBUG] SEND: 0x0 0x9 0x0 0x0 0x0 0x9 0x0 0x10 0x0 0x0 0x0 0x1 0x2 0x1 0x7c
2023-12-22 19:16:58,813 [DEBUG] New Transaction state "SENDING"
2023-12-22 19:16:58,813 [DEBUG] Changing transaction state from "SENDING" to "WAITING FOR REPLY"
2023-12-22 19:16:58,856 [DEBUG] Changing transaction state from "WAITING FOR REPLY" to "PROCESSING REPLY"
2023-12-22 19:16:58,856 [DEBUG] RECV: 0x0 0x9 0x0 0x0 0x0 0x6 0x0 0x10 0x0 0x0 0x0 0x1
2023-12-22 19:16:58,856 [DEBUG] Processing: 0x0 0x9 0x0 0x0 0x0 0x6 0x0 0x10 0x0 0x0 0x0 0x1
2023-12-22 19:16:58,856 [DEBUG] Factory Response[WriteMultipleRegistersResponse': 16]
2023-12-22 19:16:58,856 [DEBUG] Adding transaction 9
2023-12-22 19:16:58,857 [DEBUG] Getting transaction 9
2023-12-22 19:16:58,857 [DEBUG] Changing transaction state from "PROCESSING REPLY" to "TRANSACTION_COMPLETE"
2023-12-22 19:16:58,857 [INFO] Successfully wrote 38.0 to PLC register 1 for 127.0.0.1:503
2023-12-22 19:16:58,857 [DEBUG] Current transaction state - TRANSACTION_COMPLETE
2023-12-22 19:16:58,857 [DEBUG] Running transaction 10
2023-12-22 19:16:58,857 [DEBUG] SEND: 0x0 0xa 0x0 0x0 0x0 0x9 0x0 0x10 0x0 0x1 0x0 0x1 0x2 0x0 0x0
2023-12-22 19:16:58,857 [DEBUG] New Transaction state "SENDING"
2023-12-22 19:16:58,857 [DEBUG] Changing transaction state from "SENDING" to "WAITING FOR REPLY"
2023-12-22 19:16:58,903 [DEBUG] Changing transaction state from "WAITING FOR REPLY" to "PROCESSING REPLY"
2023-12-22 19:16:58,903 [DEBUG] RECV: 0x0 0xa 0x0 0x0 0x0 0x6 0x0 0x10 0x0 0x1 0x0 0x1
2023-12-22 19:16:58,903 [DEBUG] Processing: 0x0 0xa 0x0 0x0 0x0 0x6 0x0 0x10 0x0 0x1 0x0 0x1
2023-12-22 19:16:58,903 [DEBUG] Factory Response[WriteMultipleRegistersResponse': 16]
2023-12-22 19:16:58,903 [DEBUG] Adding transaction 10
2023-12-22 19:16:58,903 [DEBUG] Getting transaction 10
2023-12-22 19:16:58,903 [DEBUG] Changing transaction state from "PROCESSING REPLY" to "TRANSACTION_COMPLETE"
2023-12-22 19:16:58,903 [INFO] Successfully wrote 0.0 to PLC register 2 for 127.0.0.1:503
2023-12-22 19:16:58,904 [INFO] server_inputs: [38.0, 0.0]
2023-12-22 19:16:59,926 [DEBUG] [65459, 65459, 65459]
2023-12-22 19:16:59,926 [DEBUG] Current transaction state - TRANSACTION_COMPLETE
2023-12-22 19:16:59,926 [DEBUG] Running transaction 26
2023-12-22 19:16:59,926 [DEBUG] SEND: 0x0 0x1a 0x0 0x0 0x0 0x9 0x0 0x10 0x0 0x0 0x0 0x1 0x2 0xff 0xb3
2023-12-22 19:16:59,926 [DEBUG] New Transaction state "SENDING"
2023-12-22 19:16:59,927 [DEBUG] Changing transaction state from "SENDING" to "WAITING FOR REPLY"
2023-12-22 19:16:59,984 [DEBUG] Changing transaction state from "WAITING FOR REPLY" to "PROCESSING REPLY"
2023-12-22 19:16:59,984 [DEBUG] RECV: 0x0 0x1a 0x0 0x0 0x0 0x6 0x0 0x10 0x0 0x0 0x0 0x1
2023-12-22 19:16:59,985 [DEBUG] Processing: 0x0 0x1a 0x0 0x0 0x0 0x6 0x0 0x10 0x0 0x0 0x0 0x1
2023-12-22 19:16:59,985 [DEBUG] Factory Response[WriteMultipleRegistersResponse': 16]
2023-12-22 19:16:59,985 [DEBUG] Adding transaction 26
2023-12-22 19:16:59,985 [DEBUG] Getting transaction 26
2023-12-22 19:16:59,985 [DEBUG] Changing transaction state from "PROCESSING REPLY" to "TRANSACTION_COMPLETE"
2023-12-22 19:16:59,985 [INFO] Successfully wrote -7.7 to PLC register 1 for 127.0.0.1:502
2023-12-22 19:16:59,985 [DEBUG] Current transaction state - TRANSACTION_COMPLETE
2023-12-22 19:16:59,985 [DEBUG] Running transaction 27
2023-12-22 19:16:59,985 [DEBUG] SEND: 0x0 0x1b 0x0 0x0 0x0 0x9 0x0 0x10 0x0 0xa 0x0 0x1 0x2 0xff 0xb3
2023-12-22 19:16:59,986 [DEBUG] New Transaction state "SENDING"
2023-12-22 19:16:59,986 [DEBUG] Changing transaction state from "SENDING" to "WAITING FOR REPLY"
2023-12-22 19:17:00,031 [DEBUG] Changing transaction state from "WAITING FOR REPLY" to "PROCESSING REPLY"
2023-12-22 19:17:00,031 [DEBUG] RECV: 0x0 0x1b 0x0 0x0 0x0 0x6 0x0 0x10 0x0 0xa 0x0 0x1
2023-12-22 19:17:00,031 [DEBUG] Processing: 0x0 0x1b 0x0 0x0 0x0 0x6 0x0 0x10 0x0 0xa 0x0 0x1
2023-12-22 19:17:00,031 [DEBUG] Factory Response[WriteMultipleRegistersResponse': 16]
2023-12-22 19:17:00,031 [DEBUG] Adding transaction 27
2023-12-22 19:17:00,031 [DEBUG] Getting transaction 27
2023-12-22 19:17:00,032 [DEBUG] Changing transaction state from "PROCESSING REPLY" to "TRANSACTION_COMPLETE"
2023-12-22 19:17:00,032 [INFO] Successfully wrote -7.7 to PLC register 11 for 127.0.0.1:502
2023-12-22 19:17:00,032 [DEBUG] Current transaction state - TRANSACTION_COMPLETE
2023-12-22 19:17:00,032 [DEBUG] Running transaction 28
2023-12-22 19:17:00,032 [DEBUG] SEND: 0x0 0x1c 0x0 0x0 0x0 0x9 0x0 0x10 0x0 0xb 0x0 0x1 0x2 0xff 0xb3
2023-12-22 19:17:00,032 [DEBUG] New Transaction state "SENDING"
2023-12-22 19:17:00,032 [DEBUG] Changing transaction state from "SENDING" to "WAITING FOR REPLY"
2023-12-22 19:17:00,078 [DEBUG] Changing transaction state from "WAITING FOR REPLY" to "PROCESSING REPLY"
2023-12-22 19:17:00,078 [DEBUG] RECV: 0x0 0x1c 0x0 0x0 0x0 0x6 0x0 0x10 0x0 0xb 0x0 0x1
2023-12-22 19:17:00,078 [DEBUG] Processing: 0x0 0x1c 0x0 0x0 0x0 0x6 0x0 0x10 0x0 0xb 0x0 0x1
2023-12-22 19:17:00,078 [DEBUG] Factory Response[WriteMultipleRegistersResponse': 16]
2023-12-22 19:17:00,078 [DEBUG] Adding transaction 28
2023-12-22 19:17:00,078 [DEBUG] Getting transaction 28
2023-12-22 19:17:00,079 [DEBUG] Changing transaction state from "PROCESSING REPLY" to "TRANSACTION_COMPLETE"
2023-12-22 19:17:00,079 [INFO] Successfully wrote -7.7 to PLC register 12 for 127.0.0.1:502
2023-12-22 19:17:00,079 [DEBUG] Current transaction state - TRANSACTION_COMPLETE
2023-12-22 19:17:00,079 [DEBUG] Running transaction 29
2023-12-22 19:17:00,079 [DEBUG] SEND: 0x0 0x1d 0x0 0x0 0x0 0x6 0x0 0x3 0x0 0x4 0x0 0x1
2023-12-22 19:17:00,079 [DEBUG] New Transaction state "SENDING"
2023-12-22 19:17:00,079 [DEBUG] Changing transaction state from "SENDING" to "WAITING FOR REPLY"
2023-12-22 19:17:00,124 [DEBUG] Changing transaction state from "WAITING FOR REPLY" to "PROCESSING REPLY"
2023-12-22 19:17:00,125 [DEBUG] RECV: 0x0 0x1d 0x0 0x0 0x0 0x5 0x0 0x3 0x2 0x0 0x14
2023-12-22 19:17:00,125 [DEBUG] Processing: 0x0 0x1d 0x0 0x0 0x0 0x5 0x0 0x3 0x2 0x0 0x14
2023-12-22 19:17:00,125 [DEBUG] Factory Response[ReadHoldingRegistersResponse': 3]
2023-12-22 19:17:00,125 [DEBUG] Adding transaction 29
2023-12-22 19:17:00,126 [DEBUG] Getting transaction 29
2023-12-22 19:17:00,126 [DEBUG] Changing transaction state from "PROCESSING REPLY" to "TRANSACTION_COMPLETE"
2023-12-22 19:17:00,126 [DEBUG] Current transaction state - TRANSACTION_COMPLETE
2023-12-22 19:17:00,126 [DEBUG] Running transaction 30
2023-12-22 19:17:00,126 [DEBUG] SEND: 0x0 0x1e 0x0 0x0 0x0 0x6 0x0 0x3 0x0 0x5 0x0 0x1
2023-12-22 19:17:00,127 [DEBUG] New Transaction state "SENDING"
2023-12-22 19:17:00,127 [DEBUG] Changing transaction state from "SENDING" to "WAITING FOR REPLY"
2023-12-22 19:17:00,172 [DEBUG] Changing transaction state from "WAITING FOR REPLY" to "PROCESSING REPLY"
2023-12-22 19:17:00,172 [DEBUG] RECV: 0x0 0x1e 0x0 0x0 0x0 0x5 0x0 0x3 0x2 0x0 0x0
2023-12-22 19:17:00,172 [DEBUG] Processing: 0x0 0x1e 0x0 0x0 0x0 0x5 0x0 0x3 0x2 0x0 0x0
2023-12-22 19:17:00,172 [DEBUG] Factory Response[ReadHoldingRegistersResponse': 3]
2023-12-22 19:17:00,172 [DEBUG] Adding transaction 30
2023-12-22 19:17:00,173 [DEBUG] Getting transaction 30
2023-12-22 19:17:00,173 [DEBUG] Changing transaction state from "PROCESSING REPLY" to "TRANSACTION_COMPLETE"
2023-12-22 19:17:00,173 [INFO] TRNData[SIMULATION_MODEL][outputs][x] 0.0
2023-12-22 19:17:00,173 [DEBUG] [380, 0]
2023-12-22 19:17:00,173 [DEBUG] Current transaction state - TRANSACTION_COMPLETE
2023-12-22 19:17:00,173 [DEBUG] Running transaction 11
2023-12-22 19:17:00,173 [DEBUG] SEND: 0x0 0xb 0x0 0x0 0x0 0x9 0x0 0x10 0x0 0x0 0x0 0x1 0x2 0x1 0x7c
2023-12-22 19:17:00,173 [DEBUG] New Transaction state "SENDING"
2023-12-22 19:17:00,173 [DEBUG] Changing transaction state from "SENDING" to "WAITING FOR REPLY"
2023-12-22 19:17:00,219 [DEBUG] Changing transaction state from "WAITING FOR REPLY" to "PROCESSING REPLY"
2023-12-22 19:17:00,219 [DEBUG] RECV: 0x0 0xb 0x0 0x0 0x0 0x6 0x0 0x10 0x0 0x0 0x0 0x1
2023-12-22 19:17:00,219 [DEBUG] Processing: 0x0 0xb 0x0 0x0 0x0 0x6 0x0 0x10 0x0 0x0 0x0 0x1
2023-12-22 19:17:00,219 [DEBUG] Factory Response[WriteMultipleRegistersResponse': 16]
2023-12-22 19:17:00,219 [DEBUG] Adding transaction 11
2023-12-22 19:17:00,219 [DEBUG] Getting transaction 11
2023-12-22 19:17:00,219 [DEBUG] Changing transaction state from "PROCESSING REPLY" to "TRANSACTION_COMPLETE"
2023-12-22 19:17:00,219 [INFO] Successfully wrote 38.0 to PLC register 1 for 127.0.0.1:503
2023-12-22 19:17:00,219 [DEBUG] Current transaction state - TRANSACTION_COMPLETE
2023-12-22 19:17:00,220 [DEBUG] Running transaction 12
2023-12-22 19:17:00,220 [DEBUG] SEND: 0x0 0xc 0x0 0x0 0x0 0x9 0x0 0x10 0x0 0x1 0x0 0x1 0x2 0x0 0x0
2023-12-22 19:17:00,220 [DEBUG] New Transaction state "SENDING"
2023-12-22 19:17:00,220 [DEBUG] Changing transaction state from "SENDING" to "WAITING FOR REPLY"
2023-12-22 19:17:00,267 [DEBUG] Changing transaction state from "WAITING FOR REPLY" to "PROCESSING REPLY"
2023-12-22 19:17:00,267 [DEBUG] RECV: 0x0 0xc 0x0 0x0 0x0 0x6 0x0 0x10 0x0 0x1 0x0 0x1
2023-12-22 19:17:00,267 [DEBUG] Processing: 0x0 0xc 0x0 0x0 0x0 0x6 0x0 0x10 0x0 0x1 0x0 0x1
2023-12-22 19:17:00,267 [DEBUG] Factory Response[WriteMultipleRegistersResponse': 16]
2023-12-22 19:17:00,267 [DEBUG] Adding transaction 12
2023-12-22 19:17:00,268 [DEBUG] Getting transaction 12
2023-12-22 19:17:00,268 [DEBUG] Changing transaction state from "PROCESSING REPLY" to "TRANSACTION_COMPLETE"
2023-12-22 19:17:00,268 [INFO] Successfully wrote 0.0 to PLC register 2 for 127.0.0.1:503
2023-12-22 19:17:00,268 [INFO] server_inputs: [38.0, 0.0]
2023-12-22 19:17:01,299 [DEBUG] [65459, 65459, 65459]
2023-12-22 19:17:01,299 [DEBUG] Current transaction state - TRANSACTION_COMPLETE
2023-12-22 19:17:01,300 [DEBUG] Running transaction 31
2023-12-22 19:17:01,300 [DEBUG] SEND: 0x0 0x1f 0x0 0x0 0x0 0x9 0x0 0x10 0x0 0x0 0x0 0x1 0x2 0xff 0xb3
2023-12-22 19:17:01,300 [DEBUG] New Transaction state "SENDING"
2023-12-22 19:17:01,300 [DEBUG] Changing transaction state from "SENDING" to "WAITING FOR REPLY"
2023-12-22 19:17:01,341 [DEBUG] Changing transaction state from "WAITING FOR REPLY" to "PROCESSING REPLY"
2023-12-22 19:17:01,341 [DEBUG] RECV: 0x0 0x1f 0x0 0x0 0x0 0x6 0x0 0x10 0x0 0x0 0x0 0x1
2023-12-22 19:17:01,342 [DEBUG] Processing: 0x0 0x1f 0x0 0x0 0x0 0x6 0x0 0x10 0x0 0x0 0x0 0x1
2023-12-22 19:17:01,342 [DEBUG] Factory Response[WriteMultipleRegistersResponse': 16]
2023-12-22 19:17:01,342 [DEBUG] Adding transaction 31
2023-12-22 19:17:01,342 [DEBUG] Getting transaction 31
2023-12-22 19:17:01,342 [DEBUG] Changing transaction state from "PROCESSING REPLY" to "TRANSACTION_COMPLETE"
2023-12-22 19:17:01,342 [INFO] Successfully wrote -7.7 to PLC register 1 for 127.0.0.1:502
2023-12-22 19:17:01,342 [DEBUG] Current transaction state - TRANSACTION_COMPLETE
2023-12-22 19:17:01,342 [DEBUG] Running transaction 32
2023-12-22 19:17:01,342 [DEBUG] SEND: 0x0 0x20 0x0 0x0 0x0 0x9 0x0 0x10 0x0 0xa 0x0 0x1 0x2 0xff 0xb3
2023-12-22 19:17:01,342 [DEBUG] New Transaction state "SENDING"
2023-12-22 19:17:01,342 [DEBUG] Changing transaction state from "SENDING" to "WAITING FOR REPLY"
2023-12-22 19:17:01,388 [DEBUG] Changing transaction state from "WAITING FOR REPLY" to "PROCESSING REPLY"
2023-12-22 19:17:01,388 [DEBUG] RECV: 0x0 0x20 0x0 0x0 0x0 0x6 0x0 0x10 0x0 0xa 0x0 0x1
2023-12-22 19:17:01,388 [DEBUG] Processing: 0x0 0x20 0x0 0x0 0x0 0x6 0x0 0x10 0x0 0xa 0x0 0x1
2023-12-22 19:17:01,388 [DEBUG] Factory Response[WriteMultipleRegistersResponse': 16]
2023-12-22 19:17:01,388 [DEBUG] Adding transaction 32
2023-12-22 19:17:01,388 [DEBUG] Getting transaction 32
2023-12-22 19:17:01,388 [DEBUG] Changing transaction state from "PROCESSING REPLY" to "TRANSACTION_COMPLETE"
2023-12-22 19:17:01,388 [INFO] Successfully wrote -7.7 to PLC register 11 for 127.0.0.1:502
2023-12-22 19:17:01,388 [DEBUG] Current transaction state - TRANSACTION_COMPLETE
2023-12-22 19:17:01,388 [DEBUG] Running transaction 33
2023-12-22 19:17:01,388 [DEBUG] SEND: 0x0 0x21 0x0 0x0 0x0 0x9 0x0 0x10 0x0 0xb 0x0 0x1 0x2 0xff 0xb3
2023-12-22 19:17:01,388 [DEBUG] New Transaction state "SENDING"
2023-12-22 19:17:01,389 [DEBUG] Changing transaction state from "SENDING" to "WAITING FOR REPLY"
2023-12-22 19:17:01,434 [DEBUG] Changing transaction state from "WAITING FOR REPLY" to "PROCESSING REPLY"
2023-12-22 19:17:01,434 [DEBUG] RECV: 0x0 0x21 0x0 0x0 0x0 0x6 0x0 0x10 0x0 0xb 0x0 0x1
2023-12-22 19:17:01,435 [DEBUG] Processing: 0x0 0x21 0x0 0x0 0x0 0x6 0x0 0x10 0x0 0xb 0x0 0x1
2023-12-22 19:17:01,435 [DEBUG] Factory Response[WriteMultipleRegistersResponse': 16]
2023-12-22 19:17:01,435 [DEBUG] Adding transaction 33
2023-12-22 19:17:01,435 [DEBUG] Getting transaction 33
2023-12-22 19:17:01,435 [DEBUG] Changing transaction state from "PROCESSING REPLY" to "TRANSACTION_COMPLETE"
2023-12-22 19:17:01,435 [INFO] Successfully wrote -7.7 to PLC register 12 for 127.0.0.1:502
2023-12-22 19:17:01,435 [DEBUG] Current transaction state - TRANSACTION_COMPLETE
2023-12-22 19:17:01,435 [DEBUG] Running transaction 34
2023-12-22 19:17:01,435 [DEBUG] SEND: 0x0 0x22 0x0 0x0 0x0 0x6 0x0 0x3 0x0 0x4 0x0 0x1
2023-12-22 19:17:01,435 [DEBUG] New Transaction state "SENDING"
2023-12-22 19:17:01,436 [DEBUG] Changing transaction state from "SENDING" to "WAITING FOR REPLY"
2023-12-22 19:17:01,480 [DEBUG] Changing transaction state from "WAITING FOR REPLY" to "PROCESSING REPLY"
2023-12-22 19:17:01,480 [DEBUG] RECV: 0x0 0x22 0x0 0x0 0x0 0x5 0x0 0x3 0x2 0x0 0x14
2023-12-22 19:17:01,480 [DEBUG] Processing: 0x0 0x22 0x0 0x0 0x0 0x5 0x0 0x3 0x2 0x0 0x14
2023-12-22 19:17:01,480 [DEBUG] Factory Response[ReadHoldingRegistersResponse': 3]
2023-12-22 19:17:01,480 [DEBUG] Adding transaction 34
2023-12-22 19:17:01,480 [DEBUG] Getting transaction 34
2023-12-22 19:17:01,480 [DEBUG] Changing transaction state from "PROCESSING REPLY" to "TRANSACTION_COMPLETE"
2023-12-22 19:17:01,480 [DEBUG] Current transaction state - TRANSACTION_COMPLETE
2023-12-22 19:17:01,480 [DEBUG] Running transaction 35
2023-12-22 19:17:01,481 [DEBUG] SEND: 0x0 0x23 0x0 0x0 0x0 0x6 0x0 0x3 0x0 0x5 0x0 0x1
2023-12-22 19:17:01,481 [DEBUG] New Transaction state "SENDING"
2023-12-22 19:17:01,481 [DEBUG] Changing transaction state from "SENDING" to "WAITING FOR REPLY"
2023-12-22 19:17:01,527 [DEBUG] Changing transaction state from "WAITING FOR REPLY" to "PROCESSING REPLY"
2023-12-22 19:17:01,527 [DEBUG] RECV: 0x0 0x23 0x0 0x0 0x0 0x5 0x0 0x3 0x2 0x0 0x0
2023-12-22 19:17:01,527 [DEBUG] Processing: 0x0 0x23 0x0 0x0 0x0 0x5 0x0 0x3 0x2 0x0 0x0
2023-12-22 19:17:01,527 [DEBUG] Factory Response[ReadHoldingRegistersResponse': 3]
2023-12-22 19:17:01,527 [DEBUG] Adding transaction 35
2023-12-22 19:17:01,527 [DEBUG] Getting transaction 35
2023-12-22 19:17:01,527 [DEBUG] Changing transaction state from "PROCESSING REPLY" to "TRANSACTION_COMPLETE"
2023-12-22 19:17:01,527 [INFO] TRNData[SIMULATION_MODEL][outputs][x] 0.0
2023-12-22 19:17:01,527 [DEBUG] [380, 0]
2023-12-22 19:17:01,528 [DEBUG] Current transaction state - TRANSACTION_COMPLETE
2023-12-22 19:17:01,528 [DEBUG] Running transaction 13
2023-12-22 19:17:01,528 [DEBUG] SEND: 0x0 0xd 0x0 0x0 0x0 0x9 0x0 0x10 0x0 0x0 0x0 0x1 0x2 0x1 0x7c
2023-12-22 19:17:01,528 [DEBUG] New Transaction state "SENDING"
2023-12-22 19:17:01,528 [DEBUG] Changing transaction state from "SENDING" to "WAITING FOR REPLY"
2023-12-22 19:17:01,574 [DEBUG] Changing transaction state from "WAITING FOR REPLY" to "PROCESSING REPLY"
2023-12-22 19:17:01,574 [DEBUG] RECV: 0x0 0xd 0x0 0x0 0x0 0x6 0x0 0x10 0x0 0x0 0x0 0x1
2023-12-22 19:17:01,574 [DEBUG] Processing: 0x0 0xd 0x0 0x0 0x0 0x6 0x0 0x10 0x0 0x0 0x0 0x1
2023-12-22 19:17:01,574 [DEBUG] Factory Response[WriteMultipleRegistersResponse': 16]
2023-12-22 19:17:01,575 [DEBUG] Adding transaction 13
2023-12-22 19:17:01,575 [DEBUG] Getting transaction 13
2023-12-22 19:17:01,575 [DEBUG] Changing transaction state from "PROCESSING REPLY" to "TRANSACTION_COMPLETE"
2023-12-22 19:17:01,575 [INFO] Successfully wrote 38.0 to PLC register 1 for 127.0.0.1:503
2023-12-22 19:17:01,575 [DEBUG] Current transaction state - TRANSACTION_COMPLETE
2023-12-22 19:17:01,575 [DEBUG] Running transaction 14
2023-12-22 19:17:01,575 [DEBUG] SEND: 0x0 0xe 0x0 0x0 0x0 0x9 0x0 0x10 0x0 0x1 0x0 0x1 0x2 0x0 0x0
2023-12-22 19:17:01,575 [DEBUG] New Transaction state "SENDING"
2023-12-22 19:17:01,575 [DEBUG] Changing transaction state from "SENDING" to "WAITING FOR REPLY"
2023-12-22 19:17:01,622 [DEBUG] Changing transaction state from "WAITING FOR REPLY" to "PROCESSING REPLY"
2023-12-22 19:17:01,622 [DEBUG] RECV: 0x0 0xe 0x0 0x0 0x0 0x6 0x0 0x10 0x0 0x1 0x0 0x1
2023-12-22 19:17:01,622 [DEBUG] Processing: 0x0 0xe 0x0 0x0 0x0 0x6 0x0 0x10 0x0 0x1 0x0 0x1
2023-12-22 19:17:01,622 [DEBUG] Factory Response[WriteMultipleRegistersResponse': 16]
2023-12-22 19:17:01,622 [DEBUG] Adding transaction 14
2023-12-22 19:17:01,622 [DEBUG] Getting transaction 14
2023-12-22 19:17:01,622 [DEBUG] Changing transaction state from "PROCESSING REPLY" to "TRANSACTION_COMPLETE"
2023-12-22 19:17:01,622 [INFO] Successfully wrote 0.0 to PLC register 2 for 127.0.0.1:503
2023-12-22 19:17:01,622 [INFO] server_inputs: [38.0, 0.0]
2023-12-22 19:32:33,885 [DEBUG] [65459, 200, 450]
2023-12-22 19:32:33,890 [DEBUG] Connection to Modbus server established. Socket ('127.0.0.1', 26603)
2023-12-22 19:32:33,890 [DEBUG] Current transaction state - IDLE
2023-12-22 19:32:33,890 [DEBUG] Running transaction 1
2023-12-22 19:32:33,890 [DEBUG] SEND: 0x0 0x1 0x0 0x0 0x0 0x9 0x0 0x10 0x0 0x0 0x0 0x1 0x2 0xff 0xb3
2023-12-22 19:32:33,890 [DEBUG] New Transaction state "SENDING"
2023-12-22 19:32:33,890 [DEBUG] Changing transaction state from "SENDING" to "WAITING FOR REPLY"
2023-12-22 19:32:33,928 [DEBUG] Changing transaction state from "WAITING FOR REPLY" to "PROCESSING REPLY"
2023-12-22 19:32:33,929 [DEBUG] RECV: 0x0 0x1 0x0 0x0 0x0 0x6 0x0 0x10 0x0 0x0 0x0 0x1
2023-12-22 19:32:33,929 [DEBUG] Processing: 0x0 0x1 0x0 0x0 0x0 0x6 0x0 0x10 0x0 0x0 0x0 0x1
2023-12-22 19:32:33,930 [DEBUG] Factory Response[WriteMultipleRegistersResponse': 16]
2023-12-22 19:32:33,930 [DEBUG] Adding transaction 1
2023-12-22 19:32:33,930 [DEBUG] Getting transaction 1
2023-12-22 19:32:33,931 [DEBUG] Changing transaction state from "PROCESSING REPLY" to "TRANSACTION_COMPLETE"
2023-12-22 19:32:33,931 [INFO] Successfully wrote -7.7 to PLC register 1 for 127.0.0.1:502
2023-12-22 19:32:33,931 [DEBUG] Current transaction state - TRANSACTION_COMPLETE
2023-12-22 19:32:33,932 [DEBUG] Running transaction 2
2023-12-22 19:32:33,932 [DEBUG] SEND: 0x0 0x2 0x0 0x0 0x0 0x9 0x0 0x10 0x0 0xa 0x0 0x1 0x2 0x0 0xc8
2023-12-22 19:32:33,932 [DEBUG] New Transaction state "SENDING"
2023-12-22 19:32:33,932 [DEBUG] Changing transaction state from "SENDING" to "WAITING FOR REPLY"
2023-12-22 19:32:33,974 [DEBUG] Changing transaction state from "WAITING FOR REPLY" to "PROCESSING REPLY"
2023-12-22 19:32:33,975 [DEBUG] RECV: 0x0 0x2 0x0 0x0 0x0 0x6 0x0 0x10 0x0 0xa 0x0 0x1
2023-12-22 19:32:33,975 [DEBUG] Processing: 0x0 0x2 0x0 0x0 0x0 0x6 0x0 0x10 0x0 0xa 0x0 0x1
2023-12-22 19:32:33,975 [DEBUG] Factory Response[WriteMultipleRegistersResponse': 16]
2023-12-22 19:32:33,975 [DEBUG] Adding transaction 2
2023-12-22 19:32:33,976 [DEBUG] Getting transaction 2
2023-12-22 19:32:33,976 [DEBUG] Changing transaction state from "PROCESSING REPLY" to "TRANSACTION_COMPLETE"
2023-12-22 19:32:33,976 [INFO] Successfully wrote 20.0 to PLC register 11 for 127.0.0.1:502
2023-12-22 19:32:33,976 [DEBUG] Current transaction state - TRANSACTION_COMPLETE
2023-12-22 19:32:33,977 [DEBUG] Running transaction 3
2023-12-22 19:32:33,977 [DEBUG] SEND: 0x0 0x3 0x0 0x0 0x0 0x9 0x0 0x10 0x0 0xb 0x0 0x1 0x2 0x1 0xc2
2023-12-22 19:32:33,977 [DEBUG] New Transaction state "SENDING"
2023-12-22 19:32:33,978 [DEBUG] Changing transaction state from "SENDING" to "WAITING FOR REPLY"
2023-12-22 19:32:34,021 [DEBUG] Changing transaction state from "WAITING FOR REPLY" to "PROCESSING REPLY"
2023-12-22 19:32:34,021 [DEBUG] RECV: 0x0 0x3 0x0 0x0 0x0 0x6 0x0 0x10 0x0 0xb 0x0 0x1
2023-12-22 19:32:34,021 [DEBUG] Processing: 0x0 0x3 0x0 0x0 0x0 0x6 0x0 0x10 0x0 0xb 0x0 0x1
2023-12-22 19:32:34,021 [DEBUG] Factory Response[WriteMultipleRegistersResponse': 16]
2023-12-22 19:32:34,021 [DEBUG] Adding transaction 3
2023-12-22 19:32:34,021 [DEBUG] Getting transaction 3
2023-12-22 19:32:34,021 [DEBUG] Changing transaction state from "PROCESSING REPLY" to "TRANSACTION_COMPLETE"
2023-12-22 19:32:34,021 [INFO] Successfully wrote 45.0 to PLC register 12 for 127.0.0.1:502
2023-12-22 19:32:34,021 [DEBUG] Current transaction state - TRANSACTION_COMPLETE
2023-12-22 19:32:34,022 [DEBUG] Running transaction 4
2023-12-22 19:32:34,022 [DEBUG] SEND: 0x0 0x4 0x0 0x0 0x0 0x6 0x0 0x3 0x0 0x4 0x0 0x1
2023-12-22 19:32:34,022 [DEBUG] New Transaction state "SENDING"
2023-12-22 19:32:34,022 [DEBUG] Changing transaction state from "SENDING" to "WAITING FOR REPLY"
2023-12-22 19:32:34,068 [DEBUG] Changing transaction state from "WAITING FOR REPLY" to "PROCESSING REPLY"
2023-12-22 19:32:34,069 [DEBUG] RECV: 0x0 0x4 0x0 0x0 0x0 0x5 0x0 0x3 0x2 0x0 0x14
2023-12-22 19:32:34,069 [DEBUG] Processing: 0x0 0x4 0x0 0x0 0x0 0x5 0x0 0x3 0x2 0x0 0x14
2023-12-22 19:32:34,069 [DEBUG] Factory Response[ReadHoldingRegistersResponse': 3]
2023-12-22 19:32:34,069 [DEBUG] Adding transaction 4
2023-12-22 19:32:34,069 [DEBUG] Getting transaction 4
2023-12-22 19:32:34,069 [DEBUG] Changing transaction state from "PROCESSING REPLY" to "TRANSACTION_COMPLETE"
2023-12-22 19:32:34,069 [DEBUG] Current transaction state - TRANSACTION_COMPLETE
2023-12-22 19:32:34,069 [DEBUG] Running transaction 5
2023-12-22 19:32:34,069 [DEBUG] SEND: 0x0 0x5 0x0 0x0 0x0 0x6 0x0 0x3 0x0 0x5 0x0 0x1
2023-12-22 19:32:34,070 [DEBUG] New Transaction state "SENDING"
2023-12-22 19:32:34,070 [DEBUG] Changing transaction state from "SENDING" to "WAITING FOR REPLY"
2023-12-22 19:32:34,114 [DEBUG] Changing transaction state from "WAITING FOR REPLY" to "PROCESSING REPLY"
2023-12-22 19:32:34,114 [DEBUG] RECV: 0x0 0x5 0x0 0x0 0x0 0x5 0x0 0x3 0x2 0x0 0x0
2023-12-22 19:32:34,114 [DEBUG] Processing: 0x0 0x5 0x0 0x0 0x0 0x5 0x0 0x3 0x2 0x0 0x0
2023-12-22 19:32:34,114 [DEBUG] Factory Response[ReadHoldingRegistersResponse': 3]
2023-12-22 19:32:34,114 [DEBUG] Adding transaction 5
2023-12-22 19:32:34,115 [DEBUG] Getting transaction 5
2023-12-22 19:32:34,115 [DEBUG] Changing transaction state from "PROCESSING REPLY" to "TRANSACTION_COMPLETE"
2023-12-22 19:32:34,115 [INFO] TRNData[SIMULATION_MODEL][outputs][indexR] 0.0
2023-12-22 19:32:34,115 [DEBUG] [380, 0]
2023-12-22 19:32:34,117 [DEBUG] Connection to Modbus server established. Socket ('127.0.0.1', 26604)
2023-12-22 19:32:34,117 [DEBUG] Current transaction state - IDLE
2023-12-22 19:32:34,117 [DEBUG] Running transaction 1
2023-12-22 19:32:34,117 [DEBUG] SEND: 0x0 0x1 0x0 0x0 0x0 0x9 0x0 0x10 0x0 0x0 0x0 0x1 0x2 0x1 0x7c
2023-12-22 19:32:34,117 [DEBUG] New Transaction state "SENDING"
2023-12-22 19:32:34,118 [DEBUG] Changing transaction state from "SENDING" to "WAITING FOR REPLY"
2023-12-22 19:32:34,160 [DEBUG] Changing transaction state from "WAITING FOR REPLY" to "PROCESSING REPLY"
2023-12-22 19:32:34,160 [DEBUG] RECV: 0x0 0x1 0x0 0x0 0x0 0x6 0x0 0x10 0x0 0x0 0x0 0x1
2023-12-22 19:32:34,160 [DEBUG] Processing: 0x0 0x1 0x0 0x0 0x0 0x6 0x0 0x10 0x0 0x0 0x0 0x1
2023-12-22 19:32:34,160 [DEBUG] Factory Response[WriteMultipleRegistersResponse': 16]
2023-12-22 19:32:34,160 [DEBUG] Adding transaction 1
2023-12-22 19:32:34,160 [DEBUG] Getting transaction 1
2023-12-22 19:32:34,160 [DEBUG] Changing transaction state from "PROCESSING REPLY" to "TRANSACTION_COMPLETE"
2023-12-22 19:32:34,160 [INFO] Successfully wrote 38.0 to PLC register 1 for 127.0.0.1:503
2023-12-22 19:32:34,161 [DEBUG] Current transaction state - TRANSACTION_COMPLETE
2023-12-22 19:32:34,161 [DEBUG] Running transaction 2
2023-12-22 19:32:34,161 [DEBUG] SEND: 0x0 0x2 0x0 0x0 0x0 0x9 0x0 0x10 0x0 0x1 0x0 0x1 0x2 0x0 0x0
2023-12-22 19:32:34,161 [DEBUG] New Transaction state "SENDING"
2023-12-22 19:32:34,161 [DEBUG] Changing transaction state from "SENDING" to "WAITING FOR REPLY"
2023-12-22 19:32:34,207 [DEBUG] Changing transaction state from "WAITING FOR REPLY" to "PROCESSING REPLY"
2023-12-22 19:32:34,207 [DEBUG] RECV: 0x0 0x2 0x0 0x0 0x0 0x6 0x0 0x10 0x0 0x1 0x0 0x1
2023-12-22 19:32:34,207 [DEBUG] Processing: 0x0 0x2 0x0 0x0 0x0 0x6 0x0 0x10 0x0 0x1 0x0 0x1
2023-12-22 19:32:34,208 [DEBUG] Factory Response[WriteMultipleRegistersResponse': 16]
2023-12-22 19:32:34,208 [DEBUG] Adding transaction 2
2023-12-22 19:32:34,208 [DEBUG] Getting transaction 2
2023-12-22 19:32:34,208 [DEBUG] Changing transaction state from "PROCESSING REPLY" to "TRANSACTION_COMPLETE"
2023-12-22 19:32:34,209 [INFO] Successfully wrote 0.0 to PLC register 2 for 127.0.0.1:503
2023-12-22 19:32:34,209 [INFO] server_inputs: [38.0, 0.0]
2023-12-22 19:32:35,252 [DEBUG] [65459, 200, 450]
2023-12-22 19:32:35,252 [DEBUG] Current transaction state - TRANSACTION_COMPLETE
2023-12-22 19:32:35,252 [DEBUG] Running transaction 6
2023-12-22 19:32:35,252 [DEBUG] SEND: 0x0 0x6 0x0 0x0 0x0 0x9 0x0 0x10 0x0 0x0 0x0 0x1 0x2 0xff 0xb3
2023-12-22 19:32:35,252 [DEBUG] New Transaction state "SENDING"
2023-12-22 19:32:35,252 [DEBUG] Changing transaction state from "SENDING" to "WAITING FOR REPLY"
2023-12-22 19:32:35,284 [DEBUG] Changing transaction state from "WAITING FOR REPLY" to "PROCESSING REPLY"
2023-12-22 19:32:35,284 [DEBUG] RECV: 0x0 0x6 0x0 0x0 0x0 0x6 0x0 0x10 0x0 0x0 0x0 0x1
2023-12-22 19:32:35,284 [DEBUG] Processing: 0x0 0x6 0x0 0x0 0x0 0x6 0x0 0x10 0x0 0x0 0x0 0x1
2023-12-22 19:32:35,284 [DEBUG] Factory Response[WriteMultipleRegistersResponse': 16]
2023-12-22 19:32:35,284 [DEBUG] Adding transaction 6
2023-12-22 19:32:35,284 [DEBUG] Getting transaction 6
2023-12-22 19:32:35,284 [DEBUG] Changing transaction state from "PROCESSING REPLY" to "TRANSACTION_COMPLETE"
2023-12-22 19:32:35,284 [INFO] Successfully wrote -7.7 to PLC register 1 for 127.0.0.1:502
2023-12-22 19:32:35,285 [DEBUG] Current transaction state - TRANSACTION_COMPLETE
2023-12-22 19:32:35,285 [DEBUG] Running transaction 7
2023-12-22 19:32:35,285 [DEBUG] SEND: 0x0 0x7 0x0 0x0 0x0 0x9 0x0 0x10 0x0 0xa 0x0 0x1 0x2 0x0 0xc8
2023-12-22 19:32:35,285 [DEBUG] New Transaction state "SENDING"
2023-12-22 19:32:35,285 [DEBUG] Changing transaction state from "SENDING" to "WAITING FOR REPLY"
2023-12-22 19:32:35,331 [DEBUG] Changing transaction state from "WAITING FOR REPLY" to "PROCESSING REPLY"
2023-12-22 19:32:35,331 [DEBUG] RECV: 0x0 0x7 0x0 0x0 0x0 0x6 0x0 0x10 0x0 0xa 0x0 0x1
2023-12-22 19:32:35,332 [DEBUG] Processing: 0x0 0x7 0x0 0x0 0x0 0x6 0x0 0x10 0x0 0xa 0x0 0x1
2023-12-22 19:32:35,332 [DEBUG] Factory Response[WriteMultipleRegistersResponse': 16]
2023-12-22 19:32:35,332 [DEBUG] Adding transaction 7
2023-12-22 19:32:35,332 [DEBUG] Getting transaction 7
2023-12-22 19:32:35,332 [DEBUG] Changing transaction state from "PROCESSING REPLY" to "TRANSACTION_COMPLETE"
2023-12-22 19:32:35,333 [INFO] Successfully wrote 20.0 to PLC register 11 for 127.0.0.1:502
2023-12-22 19:32:35,333 [DEBUG] Current transaction state - TRANSACTION_COMPLETE
2023-12-22 19:32:35,333 [DEBUG] Running transaction 8
2023-12-22 19:32:35,333 [DEBUG] SEND: 0x0 0x8 0x0 0x0 0x0 0x9 0x0 0x10 0x0 0xb 0x0 0x1 0x2 0x1 0xc2
2023-12-22 19:32:35,334 [DEBUG] New Transaction state "SENDING"
2023-12-22 19:32:35,334 [DEBUG] Changing transaction state from "SENDING" to "WAITING FOR REPLY"
2023-12-22 19:32:35,376 [DEBUG] Changing transaction state from "WAITING FOR REPLY" to "PROCESSING REPLY"
2023-12-22 19:32:35,376 [DEBUG] RECV: 0x0 0x8 0x0 0x0 0x0 0x6 0x0 0x10 0x0 0xb 0x0 0x1
2023-12-22 19:32:35,376 [DEBUG] Processing: 0x0 0x8 0x0 0x0 0x0 0x6 0x0 0x10 0x0 0xb 0x0 0x1
2023-12-22 19:32:35,377 [DEBUG] Factory Response[WriteMultipleRegistersResponse': 16]
2023-12-22 19:32:35,377 [DEBUG] Adding transaction 8
2023-12-22 19:32:35,377 [DEBUG] Getting transaction 8
2023-12-22 19:32:35,377 [DEBUG] Changing transaction state from "PROCESSING REPLY" to "TRANSACTION_COMPLETE"
2023-12-22 19:32:35,377 [INFO] Successfully wrote 45.0 to PLC register 12 for 127.0.0.1:502
2023-12-22 19:32:35,377 [DEBUG] Current transaction state - TRANSACTION_COMPLETE
2023-12-22 19:32:35,377 [DEBUG] Running transaction 9
2023-12-22 19:32:35,377 [DEBUG] SEND: 0x0 0x9 0x0 0x0 0x0 0x6 0x0 0x3 0x0 0x4 0x0 0x1
2023-12-22 19:32:35,377 [DEBUG] New Transaction state "SENDING"
2023-12-22 19:32:35,378 [DEBUG] Changing transaction state from "SENDING" to "WAITING FOR REPLY"
2023-12-22 19:32:35,424 [DEBUG] Changing transaction state from "WAITING FOR REPLY" to "PROCESSING REPLY"
2023-12-22 19:32:35,425 [DEBUG] RECV: 0x0 0x9 0x0 0x0 0x0 0x5 0x0 0x3 0x2 0x0 0x14
2023-12-22 19:32:35,425 [DEBUG] Processing: 0x0 0x9 0x0 0x0 0x0 0x5 0x0 0x3 0x2 0x0 0x14
2023-12-22 19:32:35,425 [DEBUG] Factory Response[ReadHoldingRegistersResponse': 3]
2023-12-22 19:32:35,426 [DEBUG] Adding transaction 9
2023-12-22 19:32:35,426 [DEBUG] Getting transaction 9
2023-12-22 19:32:35,426 [DEBUG] Changing transaction state from "PROCESSING REPLY" to "TRANSACTION_COMPLETE"
2023-12-22 19:32:35,426 [DEBUG] Current transaction state - TRANSACTION_COMPLETE
2023-12-22 19:32:35,427 [DEBUG] Running transaction 10
2023-12-22 19:32:35,427 [DEBUG] SEND: 0x0 0xa 0x0 0x0 0x0 0x6 0x0 0x3 0x0 0x5 0x0 0x1
2023-12-22 19:32:35,427 [DEBUG] New Transaction state "SENDING"
2023-12-22 19:32:35,428 [DEBUG] Changing transaction state from "SENDING" to "WAITING FOR REPLY"
2023-12-22 19:32:35,471 [DEBUG] Changing transaction state from "WAITING FOR REPLY" to "PROCESSING REPLY"
2023-12-22 19:32:35,472 [DEBUG] RECV: 0x0 0xa 0x0 0x0 0x0 0x5 0x0 0x3 0x2 0x0 0x0
2023-12-22 19:32:35,472 [DEBUG] Processing: 0x0 0xa 0x0 0x0 0x0 0x5 0x0 0x3 0x2 0x0 0x0
2023-12-22 19:32:35,472 [DEBUG] Factory Response[ReadHoldingRegistersResponse': 3]
2023-12-22 19:32:35,473 [DEBUG] Adding transaction 10
2023-12-22 19:32:35,473 [DEBUG] Getting transaction 10
2023-12-22 19:32:35,473 [DEBUG] Changing transaction state from "PROCESSING REPLY" to "TRANSACTION_COMPLETE"
2023-12-22 19:32:35,474 [INFO] TRNData[SIMULATION_MODEL][outputs][indexR] 0.0
2023-12-22 19:32:35,474 [DEBUG] [380, 0]
2023-12-22 19:32:35,474 [DEBUG] Current transaction state - TRANSACTION_COMPLETE
2023-12-22 19:32:35,474 [DEBUG] Running transaction 3
2023-12-22 19:32:35,475 [DEBUG] SEND: 0x0 0x3 0x0 0x0 0x0 0x9 0x0 0x10 0x0 0x0 0x0 0x1 0x2 0x1 0x7c
2023-12-22 19:32:35,475 [DEBUG] New Transaction state "SENDING"
2023-12-22 19:32:35,475 [DEBUG] Changing transaction state from "SENDING" to "WAITING FOR REPLY"
2023-12-22 19:32:35,518 [DEBUG] Changing transaction state from "WAITING FOR REPLY" to "PROCESSING REPLY"
2023-12-22 19:32:35,519 [DEBUG] RECV: 0x0 0x3 0x0 0x0 0x0 0x6 0x0 0x10 0x0 0x0 0x0 0x1
2023-12-22 19:32:35,519 [DEBUG] Processing: 0x0 0x3 0x0 0x0 0x0 0x6 0x0 0x10 0x0 0x0 0x0 0x1
2023-12-22 19:32:35,519 [DEBUG] Factory Response[WriteMultipleRegistersResponse': 16]
2023-12-22 19:32:35,520 [DEBUG] Adding transaction 3
2023-12-22 19:32:35,520 [DEBUG] Getting transaction 3
2023-12-22 19:32:35,520 [DEBUG] Changing transaction state from "PROCESSING REPLY" to "TRANSACTION_COMPLETE"
2023-12-22 19:32:35,520 [INFO] Successfully wrote 38.0 to PLC register 1 for 127.0.0.1:503
2023-12-22 19:32:35,521 [DEBUG] Current transaction state - TRANSACTION_COMPLETE
2023-12-22 19:32:35,521 [DEBUG] Running transaction 4
2023-12-22 19:32:35,521 [DEBUG] SEND: 0x0 0x4 0x0 0x0 0x0 0x9 0x0 0x10 0x0 0x1 0x0 0x1 0x2 0x0 0x0
2023-12-22 19:32:35,521 [DEBUG] New Transaction state "SENDING"
2023-12-22 19:32:35,522 [DEBUG] Changing transaction state from "SENDING" to "WAITING FOR REPLY"
2023-12-22 19:32:35,566 [DEBUG] Changing transaction state from "WAITING FOR REPLY" to "PROCESSING REPLY"
2023-12-22 19:32:35,566 [DEBUG] RECV: 0x0 0x4 0x0 0x0 0x0 0x6 0x0 0x10 0x0 0x1 0x0 0x1
2023-12-22 19:32:35,567 [DEBUG] Processing: 0x0 0x4 0x0 0x0 0x0 0x6 0x0 0x10 0x0 0x1 0x0 0x1
2023-12-22 19:32:35,567 [DEBUG] Factory Response[WriteMultipleRegistersResponse': 16]
2023-12-22 19:32:35,567 [DEBUG] Adding transaction 4
2023-12-22 19:32:35,567 [DEBUG] Getting transaction 4
2023-12-22 19:32:35,567 [DEBUG] Changing transaction state from "PROCESSING REPLY" to "TRANSACTION_COMPLETE"
2023-12-22 19:32:35,567 [INFO] Successfully wrote 0.0 to PLC register 2 for 127.0.0.1:503
2023-12-22 19:32:35,567 [INFO] server_inputs: [38.0, 0.0]
2023-12-22 19:32:36,585 [DEBUG] [65459, 200, 450]
2023-12-22 19:32:36,585 [DEBUG] Current transaction state - TRANSACTION_COMPLETE
2023-12-22 19:32:36,586 [DEBUG] Running transaction 11
2023-12-22 19:32:36,586 [DEBUG] SEND: 0x0 0xb 0x0 0x0 0x0 0x9 0x0 0x10 0x0 0x0 0x0 0x1 0x2 0xff 0xb3
2023-12-22 19:32:36,586 [DEBUG] New Transaction state "SENDING"
2023-12-22 19:32:36,586 [DEBUG] Changing transaction state from "SENDING" to "WAITING FOR REPLY"
2023-12-22 19:32:36,646 [DEBUG] Changing transaction state from "WAITING FOR REPLY" to "PROCESSING REPLY"
2023-12-22 19:32:36,646 [DEBUG] RECV: 0x0 0xb 0x0 0x0 0x0 0x6 0x0 0x10 0x0 0x0 0x0 0x1
2023-12-22 19:32:36,647 [DEBUG] Processing: 0x0 0xb 0x0 0x0 0x0 0x6 0x0 0x10 0x0 0x0 0x0 0x1
2023-12-22 19:32:36,648 [DEBUG] Factory Response[WriteMultipleRegistersResponse': 16]
2023-12-22 19:32:36,648 [DEBUG] Adding transaction 11
2023-12-22 19:32:36,648 [DEBUG] Getting transaction 11
2023-12-22 19:32:36,648 [DEBUG] Changing transaction state from "PROCESSING REPLY" to "TRANSACTION_COMPLETE"
2023-12-22 19:32:36,648 [INFO] Successfully wrote -7.7 to PLC register 1 for 127.0.0.1:502
2023-12-22 19:32:36,648 [DEBUG] Current transaction state - TRANSACTION_COMPLETE
2023-12-22 19:32:36,648 [DEBUG] Running transaction 12
2023-12-22 19:32:36,648 [DEBUG] SEND: 0x0 0xc 0x0 0x0 0x0 0x9 0x0 0x10 0x0 0xa 0x0 0x1 0x2 0x0 0xc8
2023-12-22 19:32:36,648 [DEBUG] New Transaction state "SENDING"
2023-12-22 19:32:36,649 [DEBUG] Changing transaction state from "SENDING" to "WAITING FOR REPLY"
2023-12-22 19:32:36,693 [DEBUG] Changing transaction state from "WAITING FOR REPLY" to "PROCESSING REPLY"
2023-12-22 19:32:36,693 [DEBUG] RECV: 0x0 0xc 0x0 0x0 0x0 0x6 0x0 0x10 0x0 0xa 0x0 0x1
2023-12-22 19:32:36,693 [DEBUG] Processing: 0x0 0xc 0x0 0x0 0x0 0x6 0x0 0x10 0x0 0xa 0x0 0x1
2023-12-22 19:32:36,693 [DEBUG] Factory Response[WriteMultipleRegistersResponse': 16]
2023-12-22 19:32:36,693 [DEBUG] Adding transaction 12
2023-12-22 19:32:36,693 [DEBUG] Getting transaction 12
2023-12-22 19:32:36,693 [DEBUG] Changing transaction state from "PROCESSING REPLY" to "TRANSACTION_COMPLETE"
2023-12-22 19:32:36,693 [INFO] Successfully wrote 20.0 to PLC register 11 for 127.0.0.1:502
2023-12-22 19:32:36,693 [DEBUG] Current transaction state - TRANSACTION_COMPLETE
2023-12-22 19:32:36,693 [DEBUG] Running transaction 13
2023-12-22 19:32:36,693 [DEBUG] SEND: 0x0 0xd 0x0 0x0 0x0 0x9 0x0 0x10 0x0 0xb 0x0 0x1 0x2 0x1 0xc2
2023-12-22 19:32:36,694 [DEBUG] New Transaction state "SENDING"
2023-12-22 19:32:36,694 [DEBUG] Changing transaction state from "SENDING" to "WAITING FOR REPLY"
2023-12-22 19:32:36,741 [DEBUG] Changing transaction state from "WAITING FOR REPLY" to "PROCESSING REPLY"
2023-12-22 19:32:36,741 [DEBUG] RECV: 0x0 0xd 0x0 0x0 0x0 0x6 0x0 0x10 0x0 0xb 0x0 0x1
2023-12-22 19:32:36,741 [DEBUG] Processing: 0x0 0xd 0x0 0x0 0x0 0x6 0x0 0x10 0x0 0xb 0x0 0x1
2023-12-22 19:32:36,741 [DEBUG] Factory Response[WriteMultipleRegistersResponse': 16]
2023-12-22 19:32:36,741 [DEBUG] Adding transaction 13
2023-12-22 19:32:36,741 [DEBUG] Getting transaction 13
2023-12-22 19:32:36,741 [DEBUG] Changing transaction state from "PROCESSING REPLY" to "TRANSACTION_COMPLETE"
2023-12-22 19:32:36,741 [INFO] Successfully wrote 45.0 to PLC register 12 for 127.0.0.1:502
2023-12-22 19:32:36,741 [DEBUG] Current transaction state - TRANSACTION_COMPLETE
2023-12-22 19:32:36,742 [DEBUG] Running transaction 14
2023-12-22 19:32:36,742 [DEBUG] SEND: 0x0 0xe 0x0 0x0 0x0 0x6 0x0 0x3 0x0 0x4 0x0 0x1
2023-12-22 19:32:36,742 [DEBUG] New Transaction state "SENDING"
2023-12-22 19:32:36,742 [DEBUG] Changing transaction state from "SENDING" to "WAITING FOR REPLY"
2023-12-22 19:32:36,788 [DEBUG] Changing transaction state from "WAITING FOR REPLY" to "PROCESSING REPLY"
2023-12-22 19:32:36,788 [DEBUG] RECV: 0x0 0xe 0x0 0x0 0x0 0x5 0x0 0x3 0x2 0x0 0x14
2023-12-22 19:32:36,788 [DEBUG] Processing: 0x0 0xe 0x0 0x0 0x0 0x5 0x0 0x3 0x2 0x0 0x14
2023-12-22 19:32:36,788 [DEBUG] Factory Response[ReadHoldingRegistersResponse': 3]
2023-12-22 19:32:36,788 [DEBUG] Adding transaction 14
2023-12-22 19:32:36,788 [DEBUG] Getting transaction 14
2023-12-22 19:32:36,788 [DEBUG] Changing transaction state from "PROCESSING REPLY" to "TRANSACTION_COMPLETE"
2023-12-22 19:32:36,788 [DEBUG] Current transaction state - TRANSACTION_COMPLETE
2023-12-22 19:32:36,788 [DEBUG] Running transaction 15
2023-12-22 19:32:36,788 [DEBUG] SEND: 0x0 0xf 0x0 0x0 0x0 0x6 0x0 0x3 0x0 0x5 0x0 0x1
2023-12-22 19:32:36,788 [DEBUG] New Transaction state "SENDING"
2023-12-22 19:32:36,789 [DEBUG] Changing transaction state from "SENDING" to "WAITING FOR REPLY"
2023-12-22 19:32:36,835 [DEBUG] Changing transaction state from "WAITING FOR REPLY" to "PROCESSING REPLY"
2023-12-22 19:32:36,835 [DEBUG] RECV: 0x0 0xf 0x0 0x0 0x0 0x5 0x0 0x3 0x2 0x0 0x0
2023-12-22 19:32:36,835 [DEBUG] Processing: 0x0 0xf 0x0 0x0 0x0 0x5 0x0 0x3 0x2 0x0 0x0
2023-12-22 19:32:36,835 [DEBUG] Factory Response[ReadHoldingRegistersResponse': 3]
2023-12-22 19:32:36,835 [DEBUG] Adding transaction 15
2023-12-22 19:32:36,835 [DEBUG] Getting transaction 15
2023-12-22 19:32:36,835 [DEBUG] Changing transaction state from "PROCESSING REPLY" to "TRANSACTION_COMPLETE"
2023-12-22 19:32:36,836 [INFO] TRNData[SIMULATION_MODEL][outputs][indexR] 0.0
2023-12-22 19:32:36,836 [DEBUG] [380, 0]
2023-12-22 19:32:36,836 [DEBUG] Current transaction state - TRANSACTION_COMPLETE
2023-12-22 19:32:36,836 [DEBUG] Running transaction 5
2023-12-22 19:32:36,836 [DEBUG] SEND: 0x0 0x5 0x0 0x0 0x0 0x9 0x0 0x10 0x0 0x0 0x0 0x1 0x2 0x1 0x7c
2023-12-22 19:32:36,836 [DEBUG] New Transaction state "SENDING"
2023-12-22 19:32:36,836 [DEBUG] Changing transaction state from "SENDING" to "WAITING FOR REPLY"
2023-12-22 19:32:36,882 [DEBUG] Changing transaction state from "WAITING FOR REPLY" to "PROCESSING REPLY"
2023-12-22 19:32:36,882 [DEBUG] RECV: 0x0 0x5 0x0 0x0 0x0 0x6 0x0 0x10 0x0 0x0 0x0 0x1
2023-12-22 19:32:36,882 [DEBUG] Processing: 0x0 0x5 0x0 0x0 0x0 0x6 0x0 0x10 0x0 0x0 0x0 0x1
2023-12-22 19:32:36,882 [DEBUG] Factory Response[WriteMultipleRegistersResponse': 16]
2023-12-22 19:32:36,882 [DEBUG] Adding transaction 5
2023-12-22 19:32:36,882 [DEBUG] Getting transaction 5
2023-12-22 19:32:36,882 [DEBUG] Changing transaction state from "PROCESSING REPLY" to "TRANSACTION_COMPLETE"
2023-12-22 19:32:36,882 [INFO] Successfully wrote 38.0 to PLC register 1 for 127.0.0.1:503
2023-12-22 19:32:36,882 [DEBUG] Current transaction state - TRANSACTION_COMPLETE
2023-12-22 19:32:36,883 [DEBUG] Running transaction 6
2023-12-22 19:32:36,883 [DEBUG] SEND: 0x0 0x6 0x0 0x0 0x0 0x9 0x0 0x10 0x0 0x1 0x0 0x1 0x2 0x0 0x0
2023-12-22 19:32:36,883 [DEBUG] New Transaction state "SENDING"
2023-12-22 19:32:36,883 [DEBUG] Changing transaction state from "SENDING" to "WAITING FOR REPLY"
2023-12-22 19:32:36,929 [DEBUG] Changing transaction state from "WAITING FOR REPLY" to "PROCESSING REPLY"
2023-12-22 19:32:36,929 [DEBUG] RECV: 0x0 0x6 0x0 0x0 0x0 0x6 0x0 0x10 0x0 0x1 0x0 0x1
2023-12-22 19:32:36,929 [DEBUG] Processing: 0x0 0x6 0x0 0x0 0x0 0x6 0x0 0x10 0x0 0x1 0x0 0x1
2023-12-22 19:32:36,929 [DEBUG] Factory Response[WriteMultipleRegistersResponse': 16]
2023-12-22 19:32:36,929 [DEBUG] Adding transaction 6
2023-12-22 19:32:36,929 [DEBUG] Getting transaction 6
2023-12-22 19:32:36,929 [DEBUG] Changing transaction state from "PROCESSING REPLY" to "TRANSACTION_COMPLETE"
2023-12-22 19:32:36,929 [INFO] Successfully wrote 0.0 to PLC register 2 for 127.0.0.1:503
2023-12-22 19:32:36,929 [INFO] server_inputs: [38.0, 0.0]
2023-12-22 19:32:37,963 [DEBUG] [65459, 200, 450]
2023-12-22 19:32:37,963 [DEBUG] Current transaction state - TRANSACTION_COMPLETE
2023-12-22 19:32:37,964 [DEBUG] Running transaction 16
2023-12-22 19:32:37,964 [DEBUG] SEND: 0x0 0x10 0x0 0x0 0x0 0x9 0x0 0x10 0x0 0x0 0x0 0x1 0x2 0xff 0xb3
2023-12-22 19:32:37,964 [DEBUG] New Transaction state "SENDING"
2023-12-22 19:32:37,964 [DEBUG] Changing transaction state from "SENDING" to "WAITING FOR REPLY"
2023-12-22 19:32:38,004 [DEBUG] Changing transaction state from "WAITING FOR REPLY" to "PROCESSING REPLY"
2023-12-22 19:32:38,004 [DEBUG] RECV: 0x0 0x10 0x0 0x0 0x0 0x6 0x0 0x10 0x0 0x0 0x0 0x1
2023-12-22 19:32:38,004 [DEBUG] Processing: 0x0 0x10 0x0 0x0 0x0 0x6 0x0 0x10 0x0 0x0 0x0 0x1
2023-12-22 19:32:38,004 [DEBUG] Factory Response[WriteMultipleRegistersResponse': 16]
2023-12-22 19:32:38,005 [DEBUG] Adding transaction 16
2023-12-22 19:32:38,005 [DEBUG] Getting transaction 16
2023-12-22 19:32:38,005 [DEBUG] Changing transaction state from "PROCESSING REPLY" to "TRANSACTION_COMPLETE"
2023-12-22 19:32:38,005 [INFO] Successfully wrote -7.7 to PLC register 1 for 127.0.0.1:502
2023-12-22 19:32:38,005 [DEBUG] Current transaction state - TRANSACTION_COMPLETE
2023-12-22 19:32:38,005 [DEBUG] Running transaction 17
2023-12-22 19:32:38,005 [DEBUG] SEND: 0x0 0x11 0x0 0x0 0x0 0x9 0x0 0x10 0x0 0xa 0x0 0x1 0x2 0x0 0xc8
2023-12-22 19:32:38,005 [DEBUG] New Transaction state "SENDING"
2023-12-22 19:32:38,005 [DEBUG] Changing transaction state from "SENDING" to "WAITING FOR REPLY"
2023-12-22 19:32:38,052 [DEBUG] Changing transaction state from "WAITING FOR REPLY" to "PROCESSING REPLY"
2023-12-22 19:32:38,052 [DEBUG] RECV: 0x0 0x11 0x0 0x0 0x0 0x6 0x0 0x10 0x0 0xa 0x0 0x1
2023-12-22 19:32:38,053 [DEBUG] Processing: 0x0 0x11 0x0 0x0 0x0 0x6 0x0 0x10 0x0 0xa 0x0 0x1
2023-12-22 19:32:38,053 [DEBUG] Factory Response[WriteMultipleRegistersResponse': 16]
2023-12-22 19:32:38,053 [DEBUG] Adding transaction 17
2023-12-22 19:32:38,053 [DEBUG] Getting transaction 17
2023-12-22 19:32:38,053 [DEBUG] Changing transaction state from "PROCESSING REPLY" to "TRANSACTION_COMPLETE"
2023-12-22 19:32:38,054 [INFO] Successfully wrote 20.0 to PLC register 11 for 127.0.0.1:502
2023-12-22 19:32:38,054 [DEBUG] Current transaction state - TRANSACTION_COMPLETE
2023-12-22 19:32:38,054 [DEBUG] Running transaction 18
2023-12-22 19:32:38,054 [DEBUG] SEND: 0x0 0x12 0x0 0x0 0x0 0x9 0x0 0x10 0x0 0xb 0x0 0x1 0x2 0x1 0xc2
2023-12-22 19:32:38,054 [DEBUG] New Transaction state "SENDING"
2023-12-22 19:32:38,054 [DEBUG] Changing transaction state from "SENDING" to "WAITING FOR REPLY"
2023-12-22 19:32:38,098 [DEBUG] Changing transaction state from "WAITING FOR REPLY" to "PROCESSING REPLY"
2023-12-22 19:32:38,098 [DEBUG] RECV: 0x0 0x12 0x0 0x0 0x0 0x6 0x0 0x10 0x0 0xb 0x0 0x1
2023-12-22 19:32:38,098 [DEBUG] Processing: 0x0 0x12 0x0 0x0 0x0 0x6 0x0 0x10 0x0 0xb 0x0 0x1
2023-12-22 19:32:38,098 [DEBUG] Factory Response[WriteMultipleRegistersResponse': 16]
2023-12-22 19:32:38,099 [DEBUG] Adding transaction 18
2023-12-22 19:32:38,099 [DEBUG] Getting transaction 18
2023-12-22 19:32:38,099 [DEBUG] Changing transaction state from "PROCESSING REPLY" to "TRANSACTION_COMPLETE"
2023-12-22 19:32:38,099 [INFO] Successfully wrote 45.0 to PLC register 12 for 127.0.0.1:502
2023-12-22 19:32:38,099 [DEBUG] Current transaction state - TRANSACTION_COMPLETE
2023-12-22 19:32:38,099 [DEBUG] Running transaction 19
2023-12-22 19:32:38,099 [DEBUG] SEND: 0x0 0x13 0x0 0x0 0x0 0x6 0x0 0x3 0x0 0x4 0x0 0x1
2023-12-22 19:32:38,099 [DEBUG] New Transaction state "SENDING"
2023-12-22 19:32:38,099 [DEBUG] Changing transaction state from "SENDING" to "WAITING FOR REPLY"
2023-12-22 19:32:38,144 [DEBUG] Changing transaction state from "WAITING FOR REPLY" to "PROCESSING REPLY"
2023-12-22 19:32:38,144 [DEBUG] RECV: 0x0 0x13 0x0 0x0 0x0 0x5 0x0 0x3 0x2 0x0 0x14
2023-12-22 19:32:38,144 [DEBUG] Processing: 0x0 0x13 0x0 0x0 0x0 0x5 0x0 0x3 0x2 0x0 0x14
2023-12-22 19:32:38,144 [DEBUG] Factory Response[ReadHoldingRegistersResponse': 3]
2023-12-22 19:32:38,144 [DEBUG] Adding transaction 19
2023-12-22 19:32:38,145 [DEBUG] Getting transaction 19
2023-12-22 19:32:38,145 [DEBUG] Changing transaction state from "PROCESSING REPLY" to "TRANSACTION_COMPLETE"
2023-12-22 19:32:38,145 [DEBUG] Current transaction state - TRANSACTION_COMPLETE
2023-12-22 19:32:38,145 [DEBUG] Running transaction 20
2023-12-22 19:32:38,145 [DEBUG] SEND: 0x0 0x14 0x0 0x0 0x0 0x6 0x0 0x3 0x0 0x5 0x0 0x1
2023-12-22 19:32:38,145 [DEBUG] New Transaction state "SENDING"
2023-12-22 19:32:38,145 [DEBUG] Changing transaction state from "SENDING" to "WAITING FOR REPLY"
2023-12-22 19:32:38,191 [DEBUG] Changing transaction state from "WAITING FOR REPLY" to "PROCESSING REPLY"
2023-12-22 19:32:38,191 [DEBUG] RECV: 0x0 0x14 0x0 0x0 0x0 0x5 0x0 0x3 0x2 0x0 0x0
2023-12-22 19:32:38,191 [DEBUG] Processing: 0x0 0x14 0x0 0x0 0x0 0x5 0x0 0x3 0x2 0x0 0x0
2023-12-22 19:32:38,191 [DEBUG] Factory Response[ReadHoldingRegistersResponse': 3]
2023-12-22 19:32:38,191 [DEBUG] Adding transaction 20
2023-12-22 19:32:38,191 [DEBUG] Getting transaction 20
2023-12-22 19:32:38,191 [DEBUG] Changing transaction state from "PROCESSING REPLY" to "TRANSACTION_COMPLETE"
2023-12-22 19:32:38,191 [INFO] TRNData[SIMULATION_MODEL][outputs][indexR] 0.0
2023-12-22 19:32:38,192 [DEBUG] [380, 0]
2023-12-22 19:32:38,192 [DEBUG] Current transaction state - TRANSACTION_COMPLETE
2023-12-22 19:32:38,192 [DEBUG] Running transaction 7
2023-12-22 19:32:38,192 [DEBUG] SEND: 0x0 0x7 0x0 0x0 0x0 0x9 0x0 0x10 0x0 0x0 0x0 0x1 0x2 0x1 0x7c
2023-12-22 19:32:38,192 [DEBUG] New Transaction state "SENDING"
2023-12-22 19:32:38,192 [DEBUG] Changing transaction state from "SENDING" to "WAITING FOR REPLY"
2023-12-22 19:32:38,238 [DEBUG] Changing transaction state from "WAITING FOR REPLY" to "PROCESSING REPLY"
2023-12-22 19:32:38,238 [DEBUG] RECV: 0x0 0x7 0x0 0x0 0x0 0x6 0x0 0x10 0x0 0x0 0x0 0x1
2023-12-22 19:32:38,238 [DEBUG] Processing: 0x0 0x7 0x0 0x0 0x0 0x6 0x0 0x10 0x0 0x0 0x0 0x1
2023-12-22 19:32:38,238 [DEBUG] Factory Response[WriteMultipleRegistersResponse': 16]
2023-12-22 19:32:38,238 [DEBUG] Adding transaction 7
2023-12-22 19:32:38,238 [DEBUG] Getting transaction 7
2023-12-22 19:32:38,238 [DEBUG] Changing transaction state from "PROCESSING REPLY" to "TRANSACTION_COMPLETE"
2023-12-22 19:32:38,238 [INFO] Successfully wrote 38.0 to PLC register 1 for 127.0.0.1:503
2023-12-22 19:32:38,238 [DEBUG] Current transaction state - TRANSACTION_COMPLETE
2023-12-22 19:32:38,238 [DEBUG] Running transaction 8
2023-12-22 19:32:38,239 [DEBUG] SEND: 0x0 0x8 0x0 0x0 0x0 0x9 0x0 0x10 0x0 0x1 0x0 0x1 0x2 0x0 0x0
2023-12-22 19:32:38,239 [DEBUG] New Transaction state "SENDING"
2023-12-22 19:32:38,239 [DEBUG] Changing transaction state from "SENDING" to "WAITING FOR REPLY"
2023-12-22 19:32:38,285 [DEBUG] Changing transaction state from "WAITING FOR REPLY" to "PROCESSING REPLY"
2023-12-22 19:32:38,285 [DEBUG] RECV: 0x0 0x8 0x0 0x0 0x0 0x6 0x0 0x10 0x0 0x1 0x0 0x1
2023-12-22 19:32:38,285 [DEBUG] Processing: 0x0 0x8 0x0 0x0 0x0 0x6 0x0 0x10 0x0 0x1 0x0 0x1
2023-12-22 19:32:38,285 [DEBUG] Factory Response[WriteMultipleRegistersResponse': 16]
2023-12-22 19:32:38,285 [DEBUG] Adding transaction 8
2023-12-22 19:32:38,285 [DEBUG] Getting transaction 8
2023-12-22 19:32:38,285 [DEBUG] Changing transaction state from "PROCESSING REPLY" to "TRANSACTION_COMPLETE"
2023-12-22 19:32:38,285 [INFO] Successfully wrote 0.0 to PLC register 2 for 127.0.0.1:503
2023-12-22 19:32:38,285 [INFO] server_inputs: [38.0, 0.0]
2023-12-22 19:32:39,302 [DEBUG] [65459, 200, 450]
2023-12-22 19:32:39,302 [DEBUG] Current transaction state - TRANSACTION_COMPLETE
2023-12-22 19:32:39,303 [DEBUG] Running transaction 21
2023-12-22 19:32:39,303 [DEBUG] SEND: 0x0 0x15 0x0 0x0 0x0 0x9 0x0 0x10 0x0 0x0 0x0 0x1 0x2 0xff 0xb3
2023-12-22 19:32:39,303 [DEBUG] New Transaction state "SENDING"
2023-12-22 19:32:39,303 [DEBUG] Changing transaction state from "SENDING" to "WAITING FOR REPLY"
2023-12-22 19:32:39,366 [DEBUG] Changing transaction state from "WAITING FOR REPLY" to "PROCESSING REPLY"
2023-12-22 19:32:39,366 [DEBUG] RECV: 0x0 0x15 0x0 0x0 0x0 0x6 0x0 0x10 0x0 0x0 0x0 0x1
2023-12-22 19:32:39,366 [DEBUG] Processing: 0x0 0x15 0x0 0x0 0x0 0x6 0x0 0x10 0x0 0x0 0x0 0x1
2023-12-22 19:32:39,367 [DEBUG] Factory Response[WriteMultipleRegistersResponse': 16]
2023-12-22 19:32:39,367 [DEBUG] Adding transaction 21
2023-12-22 19:32:39,367 [DEBUG] Getting transaction 21
2023-12-22 19:32:39,367 [DEBUG] Changing transaction state from "PROCESSING REPLY" to "TRANSACTION_COMPLETE"
2023-12-22 19:32:39,367 [INFO] Successfully wrote -7.7 to PLC register 1 for 127.0.0.1:502
2023-12-22 19:32:39,367 [DEBUG] Current transaction state - TRANSACTION_COMPLETE
2023-12-22 19:32:39,367 [DEBUG] Running transaction 22
2023-12-22 19:32:39,367 [DEBUG] SEND: 0x0 0x16 0x0 0x0 0x0 0x9 0x0 0x10 0x0 0xa 0x0 0x1 0x2 0x0 0xc8
2023-12-22 19:32:39,367 [DEBUG] New Transaction state "SENDING"
2023-12-22 19:32:39,367 [DEBUG] Changing transaction state from "SENDING" to "WAITING FOR REPLY"
2023-12-22 19:32:39,412 [DEBUG] Changing transaction state from "WAITING FOR REPLY" to "PROCESSING REPLY"
2023-12-22 19:32:39,412 [DEBUG] RECV: 0x0 0x16 0x0 0x0 0x0 0x6 0x0 0x10 0x0 0xa 0x0 0x1
2023-12-22 19:32:39,413 [DEBUG] Processing: 0x0 0x16 0x0 0x0 0x0 0x6 0x0 0x10 0x0 0xa 0x0 0x1
2023-12-22 19:32:39,413 [DEBUG] Factory Response[WriteMultipleRegistersResponse': 16]
2023-12-22 19:32:39,413 [DEBUG] Adding transaction 22
2023-12-22 19:32:39,413 [DEBUG] Getting transaction 22
2023-12-22 19:32:39,413 [DEBUG] Changing transaction state from "PROCESSING REPLY" to "TRANSACTION_COMPLETE"
2023-12-22 19:32:39,413 [INFO] Successfully wrote 20.0 to PLC register 11 for 127.0.0.1:502
2023-12-22 19:32:39,413 [DEBUG] Current transaction state - TRANSACTION_COMPLETE
2023-12-22 19:32:39,414 [DEBUG] Running transaction 23
2023-12-22 19:32:39,414 [DEBUG] SEND: 0x0 0x17 0x0 0x0 0x0 0x9 0x0 0x10 0x0 0xb 0x0 0x1 0x2 0x1 0xc2
2023-12-22 19:32:39,414 [DEBUG] New Transaction state "SENDING"
2023-12-22 19:32:39,414 [DEBUG] Changing transaction state from "SENDING" to "WAITING FOR REPLY"
2023-12-22 19:32:39,459 [DEBUG] Changing transaction state from "WAITING FOR REPLY" to "PROCESSING REPLY"
2023-12-22 19:32:39,459 [DEBUG] RECV: 0x0 0x17 0x0 0x0 0x0 0x6 0x0 0x10 0x0 0xb 0x0 0x1
2023-12-22 19:32:39,459 [DEBUG] Processing: 0x0 0x17 0x0 0x0 0x0 0x6 0x0 0x10 0x0 0xb 0x0 0x1
2023-12-22 19:32:39,459 [DEBUG] Factory Response[WriteMultipleRegistersResponse': 16]
2023-12-22 19:32:39,459 [DEBUG] Adding transaction 23
2023-12-22 19:32:39,460 [DEBUG] Getting transaction 23
2023-12-22 19:32:39,460 [DEBUG] Changing transaction state from "PROCESSING REPLY" to "TRANSACTION_COMPLETE"
2023-12-22 19:32:39,460 [INFO] Successfully wrote 45.0 to PLC register 12 for 127.0.0.1:502
2023-12-22 19:32:39,460 [DEBUG] Current transaction state - TRANSACTION_COMPLETE
2023-12-22 19:32:39,460 [DEBUG] Running transaction 24
2023-12-22 19:32:39,460 [DEBUG] SEND: 0x0 0x18 0x0 0x0 0x0 0x6 0x0 0x3 0x0 0x4 0x0 0x1
2023-12-22 19:32:39,460 [DEBUG] New Transaction state "SENDING"
2023-12-22 19:32:39,460 [DEBUG] Changing transaction state from "SENDING" to "WAITING FOR REPLY"
2023-12-22 19:32:39,506 [DEBUG] Changing transaction state from "WAITING FOR REPLY" to "PROCESSING REPLY"
2023-12-22 19:32:39,506 [DEBUG] RECV: 0x0 0x18 0x0 0x0 0x0 0x5 0x0 0x3 0x2 0x0 0x14
2023-12-22 19:32:39,507 [DEBUG] Processing: 0x0 0x18 0x0 0x0 0x0 0x5 0x0 0x3 0x2 0x0 0x14
2023-12-22 19:32:39,507 [DEBUG] Factory Response[ReadHoldingRegistersResponse': 3]
2023-12-22 19:32:39,507 [DEBUG] Adding transaction 24
2023-12-22 19:32:39,507 [DEBUG] Getting transaction 24
2023-12-22 19:32:39,507 [DEBUG] Changing transaction state from "PROCESSING REPLY" to "TRANSACTION_COMPLETE"
2023-12-22 19:32:39,507 [DEBUG] Current transaction state - TRANSACTION_COMPLETE
2023-12-22 19:32:39,507 [DEBUG] Running transaction 25
2023-12-22 19:32:39,507 [DEBUG] SEND: 0x0 0x19 0x0 0x0 0x0 0x6 0x0 0x3 0x0 0x5 0x0 0x1
2023-12-22 19:32:39,507 [DEBUG] New Transaction state "SENDING"
2023-12-22 19:32:39,508 [DEBUG] Changing transaction state from "SENDING" to "WAITING FOR REPLY"
2023-12-22 19:32:39,553 [DEBUG] Changing transaction state from "WAITING FOR REPLY" to "PROCESSING REPLY"
2023-12-22 19:32:39,553 [DEBUG] RECV: 0x0 0x19 0x0 0x0 0x0 0x5 0x0 0x3 0x2 0x0 0x0
2023-12-22 19:32:39,553 [DEBUG] Processing: 0x0 0x19 0x0 0x0 0x0 0x5 0x0 0x3 0x2 0x0 0x0
2023-12-22 19:32:39,554 [DEBUG] Factory Response[ReadHoldingRegistersResponse': 3]
2023-12-22 19:32:39,554 [DEBUG] Adding transaction 25
2023-12-22 19:32:39,554 [DEBUG] Getting transaction 25
2023-12-22 19:32:39,554 [DEBUG] Changing transaction state from "PROCESSING REPLY" to "TRANSACTION_COMPLETE"
2023-12-22 19:32:39,554 [INFO] TRNData[SIMULATION_MODEL][outputs][indexR] 0.0
2023-12-22 19:32:39,554 [DEBUG] [380, 0]
2023-12-22 19:32:39,554 [DEBUG] Current transaction state - TRANSACTION_COMPLETE
2023-12-22 19:32:39,554 [DEBUG] Running transaction 9
2023-12-22 19:32:39,555 [DEBUG] SEND: 0x0 0x9 0x0 0x0 0x0 0x9 0x0 0x10 0x0 0x0 0x0 0x1 0x2 0x1 0x7c
2023-12-22 19:32:39,555 [DEBUG] New Transaction state "SENDING"
2023-12-22 19:32:39,555 [DEBUG] Changing transaction state from "SENDING" to "WAITING FOR REPLY"
2023-12-22 19:32:39,601 [DEBUG] Changing transaction state from "WAITING FOR REPLY" to "PROCESSING REPLY"
2023-12-22 19:32:39,601 [DEBUG] RECV: 0x0 0x9 0x0 0x0 0x0 0x6 0x0 0x10 0x0 0x0 0x0 0x1
2023-12-22 19:32:39,601 [DEBUG] Processing: 0x0 0x9 0x0 0x0 0x0 0x6 0x0 0x10 0x0 0x0 0x0 0x1
2023-12-22 19:32:39,601 [DEBUG] Factory Response[WriteMultipleRegistersResponse': 16]
2023-12-22 19:32:39,601 [DEBUG] Adding transaction 9
2023-12-22 19:32:39,601 [DEBUG] Getting transaction 9
2023-12-22 19:32:39,601 [DEBUG] Changing transaction state from "PROCESSING REPLY" to "TRANSACTION_COMPLETE"
2023-12-22 19:32:39,602 [INFO] Successfully wrote 38.0 to PLC register 1 for 127.0.0.1:503
2023-12-22 19:32:39,602 [DEBUG] Current transaction state - TRANSACTION_COMPLETE
2023-12-22 19:32:39,602 [DEBUG] Running transaction 10
2023-12-22 19:32:39,602 [DEBUG] SEND: 0x0 0xa 0x0 0x0 0x0 0x9 0x0 0x10 0x0 0x1 0x0 0x1 0x2 0x0 0x0
2023-12-22 19:32:39,602 [DEBUG] New Transaction state "SENDING"
2023-12-22 19:32:39,602 [DEBUG] Changing transaction state from "SENDING" to "WAITING FOR REPLY"
2023-12-22 19:32:39,649 [DEBUG] Changing transaction state from "WAITING FOR REPLY" to "PROCESSING REPLY"
2023-12-22 19:32:39,649 [DEBUG] RECV: 0x0 0xa 0x0 0x0 0x0 0x6 0x0 0x10 0x0 0x1 0x0 0x1
2023-12-22 19:32:39,649 [DEBUG] Processing: 0x0 0xa 0x0 0x0 0x0 0x6 0x0 0x10 0x0 0x1 0x0 0x1
2023-12-22 19:32:39,649 [DEBUG] Factory Response[WriteMultipleRegistersResponse': 16]
2023-12-22 19:32:39,649 [DEBUG] Adding transaction 10
2023-12-22 19:32:39,649 [DEBUG] Getting transaction 10
2023-12-22 19:32:39,650 [DEBUG] Changing transaction state from "PROCESSING REPLY" to "TRANSACTION_COMPLETE"
2023-12-22 19:32:39,650 [INFO] Successfully wrote 0.0 to PLC register 2 for 127.0.0.1:503
2023-12-22 19:32:39,650 [INFO] server_inputs: [38.0, 0.0]
2023-12-22 19:32:40,675 [DEBUG] [65459, 200, 450]
2023-12-22 19:32:40,675 [DEBUG] Current transaction state - TRANSACTION_COMPLETE
2023-12-22 19:32:40,675 [DEBUG] Running transaction 26
2023-12-22 19:32:40,675 [DEBUG] SEND: 0x0 0x1a 0x0 0x0 0x0 0x9 0x0 0x10 0x0 0x0 0x0 0x1 0x2 0xff 0xb3
2023-12-22 19:32:40,675 [DEBUG] New Transaction state "SENDING"
2023-12-22 19:32:40,676 [DEBUG] Changing transaction state from "SENDING" to "WAITING FOR REPLY"
2023-12-22 19:32:40,722 [DEBUG] Changing transaction state from "WAITING FOR REPLY" to "PROCESSING REPLY"
2023-12-22 19:32:40,723 [DEBUG] RECV: 0x0 0x1a 0x0 0x0 0x0 0x6 0x0 0x10 0x0 0x0 0x0 0x1
2023-12-22 19:32:40,723 [DEBUG] Processing: 0x0 0x1a 0x0 0x0 0x0 0x6 0x0 0x10 0x0 0x0 0x0 0x1
2023-12-22 19:32:40,724 [DEBUG] Factory Response[WriteMultipleRegistersResponse': 16]
2023-12-22 19:32:40,724 [DEBUG] Adding transaction 26
2023-12-22 19:32:40,724 [DEBUG] Getting transaction 26
2023-12-22 19:32:40,725 [DEBUG] Changing transaction state from "PROCESSING REPLY" to "TRANSACTION_COMPLETE"
2023-12-22 19:32:40,725 [INFO] Successfully wrote -7.7 to PLC register 1 for 127.0.0.1:502
2023-12-22 19:32:40,725 [DEBUG] Current transaction state - TRANSACTION_COMPLETE
2023-12-22 19:32:40,726 [DEBUG] Running transaction 27
2023-12-22 19:32:40,726 [DEBUG] SEND: 0x0 0x1b 0x0 0x0 0x0 0x9 0x0 0x10 0x0 0xa 0x0 0x1 0x2 0x0 0xc8
2023-12-22 19:32:40,726 [DEBUG] New Transaction state "SENDING"
2023-12-22 19:32:40,726 [DEBUG] Changing transaction state from "SENDING" to "WAITING FOR REPLY"
2023-12-22 19:32:40,768 [DEBUG] Changing transaction state from "WAITING FOR REPLY" to "PROCESSING REPLY"
2023-12-22 19:32:40,768 [DEBUG] RECV: 0x0 0x1b 0x0 0x0 0x0 0x6 0x0 0x10 0x0 0xa 0x0 0x1
2023-12-22 19:32:40,768 [DEBUG] Processing: 0x0 0x1b 0x0 0x0 0x0 0x6 0x0 0x10 0x0 0xa 0x0 0x1
2023-12-22 19:32:40,768 [DEBUG] Factory Response[WriteMultipleRegistersResponse': 16]
2023-12-22 19:32:40,769 [DEBUG] Adding transaction 27
2023-12-22 19:32:40,769 [DEBUG] Getting transaction 27
2023-12-22 19:32:40,769 [DEBUG] Changing transaction state from "PROCESSING REPLY" to "TRANSACTION_COMPLETE"
2023-12-22 19:32:40,769 [INFO] Successfully wrote 20.0 to PLC register 11 for 127.0.0.1:502
2023-12-22 19:32:40,769 [DEBUG] Current transaction state - TRANSACTION_COMPLETE
2023-12-22 19:32:40,769 [DEBUG] Running transaction 28
2023-12-22 19:32:40,769 [DEBUG] SEND: 0x0 0x1c 0x0 0x0 0x0 0x9 0x0 0x10 0x0 0xb 0x0 0x1 0x2 0x1 0xc2
2023-12-22 19:32:40,769 [DEBUG] New Transaction state "SENDING"
2023-12-22 19:32:40,769 [DEBUG] Changing transaction state from "SENDING" to "WAITING FOR REPLY"
2023-12-22 19:32:40,814 [DEBUG] Changing transaction state from "WAITING FOR REPLY" to "PROCESSING REPLY"
2023-12-22 19:32:40,814 [DEBUG] RECV: 0x0 0x1c 0x0 0x0 0x0 0x6 0x0 0x10 0x0 0xb 0x0 0x1
2023-12-22 19:32:40,814 [DEBUG] Processing: 0x0 0x1c 0x0 0x0 0x0 0x6 0x0 0x10 0x0 0xb 0x0 0x1
2023-12-22 19:32:40,814 [DEBUG] Factory Response[WriteMultipleRegistersResponse': 16]
2023-12-22 19:32:40,815 [DEBUG] Adding transaction 28
2023-12-22 19:32:40,815 [DEBUG] Getting transaction 28
2023-12-22 19:32:40,815 [DEBUG] Changing transaction state from "PROCESSING REPLY" to "TRANSACTION_COMPLETE"
2023-12-22 19:32:40,815 [INFO] Successfully wrote 45.0 to PLC register 12 for 127.0.0.1:502
2023-12-22 19:32:40,815 [DEBUG] Current transaction state - TRANSACTION_COMPLETE
2023-12-22 19:32:40,815 [DEBUG] Running transaction 29
2023-12-22 19:32:40,815 [DEBUG] SEND: 0x0 0x1d 0x0 0x0 0x0 0x6 0x0 0x3 0x0 0x4 0x0 0x1
2023-12-22 19:32:40,815 [DEBUG] New Transaction state "SENDING"
2023-12-22 19:32:40,815 [DEBUG] Changing transaction state from "SENDING" to "WAITING FOR REPLY"
2023-12-22 19:32:40,862 [DEBUG] Changing transaction state from "WAITING FOR REPLY" to "PROCESSING REPLY"
2023-12-22 19:32:40,862 [DEBUG] RECV: 0x0 0x1d 0x0 0x0 0x0 0x5 0x0 0x3 0x2 0x0 0x14
2023-12-22 19:32:40,862 [DEBUG] Processing: 0x0 0x1d 0x0 0x0 0x0 0x5 0x0 0x3 0x2 0x0 0x14
2023-12-22 19:32:40,862 [DEBUG] Factory Response[ReadHoldingRegistersResponse': 3]
2023-12-22 19:32:40,862 [DEBUG] Adding transaction 29
2023-12-22 19:32:40,862 [DEBUG] Getting transaction 29
2023-12-22 19:32:40,863 [DEBUG] Changing transaction state from "PROCESSING REPLY" to "TRANSACTION_COMPLETE"
2023-12-22 19:32:40,863 [DEBUG] Current transaction state - TRANSACTION_COMPLETE
2023-12-22 19:32:40,863 [DEBUG] Running transaction 30
2023-12-22 19:32:40,863 [DEBUG] SEND: 0x0 0x1e 0x0 0x0 0x0 0x6 0x0 0x3 0x0 0x5 0x0 0x1
2023-12-22 19:32:40,863 [DEBUG] New Transaction state "SENDING"
2023-12-22 19:32:40,863 [DEBUG] Changing transaction state from "SENDING" to "WAITING FOR REPLY"
2023-12-22 19:32:40,909 [DEBUG] Changing transaction state from "WAITING FOR REPLY" to "PROCESSING REPLY"
2023-12-22 19:32:40,909 [DEBUG] RECV: 0x0 0x1e 0x0 0x0 0x0 0x5 0x0 0x3 0x2 0x0 0x0
2023-12-22 19:32:40,910 [DEBUG] Processing: 0x0 0x1e 0x0 0x0 0x0 0x5 0x0 0x3 0x2 0x0 0x0
2023-12-22 19:32:40,910 [DEBUG] Factory Response[ReadHoldingRegistersResponse': 3]
2023-12-22 19:32:40,910 [DEBUG] Adding transaction 30
2023-12-22 19:32:40,910 [DEBUG] Getting transaction 30
2023-12-22 19:32:40,910 [DEBUG] Changing transaction state from "PROCESSING REPLY" to "TRANSACTION_COMPLETE"
2023-12-22 19:32:40,910 [INFO] TRNData[SIMULATION_MODEL][outputs][indexR] 0.0
2023-12-22 19:32:40,911 [DEBUG] [380, 0]
2023-12-22 19:32:40,911 [DEBUG] Current transaction state - TRANSACTION_COMPLETE
2023-12-22 19:32:40,911 [DEBUG] Running transaction 11
2023-12-22 19:32:40,911 [DEBUG] SEND: 0x0 0xb 0x0 0x0 0x0 0x9 0x0 0x10 0x0 0x0 0x0 0x1 0x2 0x1 0x7c
2023-12-22 19:32:40,911 [DEBUG] New Transaction state "SENDING"
2023-12-22 19:32:40,911 [DEBUG] Changing transaction state from "SENDING" to "WAITING FOR REPLY"
2023-12-22 19:32:40,954 [DEBUG] Changing transaction state from "WAITING FOR REPLY" to "PROCESSING REPLY"
2023-12-22 19:32:40,954 [DEBUG] RECV: 0x0 0xb 0x0 0x0 0x0 0x6 0x0 0x10 0x0 0x0 0x0 0x1
2023-12-22 19:32:40,954 [DEBUG] Processing: 0x0 0xb 0x0 0x0 0x0 0x6 0x0 0x10 0x0 0x0 0x0 0x1
2023-12-22 19:32:40,954 [DEBUG] Factory Response[WriteMultipleRegistersResponse': 16]
2023-12-22 19:32:40,955 [DEBUG] Adding transaction 11
2023-12-22 19:32:40,955 [DEBUG] Getting transaction 11
2023-12-22 19:32:40,955 [DEBUG] Changing transaction state from "PROCESSING REPLY" to "TRANSACTION_COMPLETE"
2023-12-22 19:32:40,955 [INFO] Successfully wrote 38.0 to PLC register 1 for 127.0.0.1:503
2023-12-22 19:32:40,955 [DEBUG] Current transaction state - TRANSACTION_COMPLETE
2023-12-22 19:32:40,955 [DEBUG] Running transaction 12
2023-12-22 19:32:40,955 [DEBUG] SEND: 0x0 0xc 0x0 0x0 0x0 0x9 0x0 0x10 0x0 0x1 0x0 0x1 0x2 0x0 0x0
2023-12-22 19:32:40,955 [DEBUG] New Transaction state "SENDING"
2023-12-22 19:32:40,956 [DEBUG] Changing transaction state from "SENDING" to "WAITING FOR REPLY"
2023-12-22 19:32:41,001 [DEBUG] Changing transaction state from "WAITING FOR REPLY" to "PROCESSING REPLY"
2023-12-22 19:32:41,001 [DEBUG] RECV: 0x0 0xc 0x0 0x0 0x0 0x6 0x0 0x10 0x0 0x1 0x0 0x1
2023-12-22 19:32:41,001 [DEBUG] Processing: 0x0 0xc 0x0 0x0 0x0 0x6 0x0 0x10 0x0 0x1 0x0 0x1
2023-12-22 19:32:41,001 [DEBUG] Factory Response[WriteMultipleRegistersResponse': 16]
2023-12-22 19:32:41,002 [DEBUG] Adding transaction 12
2023-12-22 19:32:41,002 [DEBUG] Getting transaction 12
2023-12-22 19:32:41,002 [DEBUG] Changing transaction state from "PROCESSING REPLY" to "TRANSACTION_COMPLETE"
2023-12-22 19:32:41,002 [INFO] Successfully wrote 0.0 to PLC register 2 for 127.0.0.1:503
2023-12-22 19:32:41,002 [INFO] server_inputs: [38.0, 0.0]
2023-12-22 19:32:42,030 [DEBUG] [65459, 200, 450]
2023-12-22 19:32:42,030 [DEBUG] Current transaction state - TRANSACTION_COMPLETE
2023-12-22 19:32:42,030 [DEBUG] Running transaction 31
2023-12-22 19:32:42,030 [DEBUG] SEND: 0x0 0x1f 0x0 0x0 0x0 0x9 0x0 0x10 0x0 0x0 0x0 0x1 0x2 0xff 0xb3
2023-12-22 19:32:42,030 [DEBUG] New Transaction state "SENDING"
2023-12-22 19:32:42,031 [DEBUG] Changing transaction state from "SENDING" to "WAITING FOR REPLY"
2023-12-22 19:32:42,080 [DEBUG] Changing transaction state from "WAITING FOR REPLY" to "PROCESSING REPLY"
2023-12-22 19:32:42,080 [DEBUG] RECV: 0x0 0x1f 0x0 0x0 0x0 0x6 0x0 0x10 0x0 0x0 0x0 0x1
2023-12-22 19:32:42,080 [DEBUG] Processing: 0x0 0x1f 0x0 0x0 0x0 0x6 0x0 0x10 0x0 0x0 0x0 0x1
2023-12-22 19:32:42,080 [DEBUG] Factory Response[WriteMultipleRegistersResponse': 16]
2023-12-22 19:32:42,080 [DEBUG] Adding transaction 31
2023-12-22 19:32:42,080 [DEBUG] Getting transaction 31
2023-12-22 19:32:42,080 [DEBUG] Changing transaction state from "PROCESSING REPLY" to "TRANSACTION_COMPLETE"
2023-12-22 19:32:42,080 [INFO] Successfully wrote -7.7 to PLC register 1 for 127.0.0.1:502
2023-12-22 19:32:42,080 [DEBUG] Current transaction state - TRANSACTION_COMPLETE
2023-12-22 19:32:42,080 [DEBUG] Running transaction 32
2023-12-22 19:32:42,081 [DEBUG] SEND: 0x0 0x20 0x0 0x0 0x0 0x9 0x0 0x10 0x0 0xa 0x0 0x1 0x2 0x0 0xc8
2023-12-22 19:32:42,081 [DEBUG] New Transaction state "SENDING"
2023-12-22 19:32:42,081 [DEBUG] Changing transaction state from "SENDING" to "WAITING FOR REPLY"
2023-12-22 19:32:42,125 [DEBUG] Changing transaction state from "WAITING FOR REPLY" to "PROCESSING REPLY"
