2024-01-04 11:25:18,566 [DEBUG] [65459]
2024-01-04 11:25:18,655 [DEBUG] Connection to Modbus server established. Socket ('10.202.240.26', 11587)
2024-01-04 11:25:18,655 [DEBUG] Current transaction state - IDLE
2024-01-04 11:25:18,655 [DEBUG] Running transaction 1
2024-01-04 11:25:18,655 [DEBUG] SEND: 0x0 0x1 0x0 0x0 0x0 0x9 0x0 0x10 0x0 0x0 0x0 0x1 0x2 0xff 0xb3
2024-01-04 11:25:18,655 [DEBUG] New Transaction state "SENDING"
2024-01-04 11:25:18,655 [DEBUG] Changing transaction state from "SENDING" to "WAITING FOR REPLY"
2024-01-04 11:25:19,429 [DEBUG] Changing transaction state from "WAITING FOR REPLY" to "PROCESSING REPLY"
2024-01-04 11:25:19,429 [DEBUG] RECV: 0x0 0x1 0x0 0x0 0x0 0x6 0x0 0x10 0x2 0x0 0x0 0x1
2024-01-04 11:25:19,430 [DEBUG] Processing: 0x0 0x1 0x0 0x0 0x0 0x6 0x0 0x10 0x2 0x0 0x0 0x1
2024-01-04 11:25:19,430 [DEBUG] Factory Response[WriteMultipleRegistersResponse': 16]
2024-01-04 11:25:19,430 [DEBUG] Adding transaction 1
2024-01-04 11:25:19,430 [DEBUG] Getting transaction 1
2024-01-04 11:25:19,430 [DEBUG] Changing transaction state from "PROCESSING REPLY" to "TRANSACTION_COMPLETE"
2024-01-04 11:25:19,430 [INFO] Successfully wrote -7.7 to PLC register 1 for 10.208.8.11:502
2024-01-04 11:25:19,430 [DEBUG] [10000, 500]
2024-01-04 11:25:19,433 [DEBUG] Connection to Modbus server established. Socket ('10.202.240.26', 11588)
2024-01-04 11:25:19,433 [DEBUG] Current transaction state - IDLE
2024-01-04 11:25:19,433 [DEBUG] Running transaction 1
2024-01-04 11:25:19,433 [DEBUG] SEND: 0x0 0x1 0x0 0x0 0x0 0x9 0x0 0x10 0x0 0x0 0x0 0x1 0x2 0x27 0x10
2024-01-04 11:25:19,433 [DEBUG] New Transaction state "SENDING"
2024-01-04 11:25:19,433 [DEBUG] Changing transaction state from "SENDING" to "WAITING FOR REPLY"
2024-01-04 11:25:19,437 [DEBUG] Changing transaction state from "WAITING FOR REPLY" to "PROCESSING REPLY"
2024-01-04 11:25:19,437 [DEBUG] RECV: 0x0 0x1 0x0 0x0 0x0 0x6 0x0 0x10 0x0 0x0 0x0 0x1
2024-01-04 11:25:19,437 [DEBUG] Processing: 0x0 0x1 0x0 0x0 0x0 0x6 0x0 0x10 0x0 0x0 0x0 0x1
2024-01-04 11:25:19,437 [DEBUG] Factory Response[WriteMultipleRegistersResponse': 16]
2024-01-04 11:25:19,437 [DEBUG] Adding transaction 1
2024-01-04 11:25:19,437 [DEBUG] Getting transaction 1
2024-01-04 11:25:19,437 [DEBUG] Changing transaction state from "PROCESSING REPLY" to "TRANSACTION_COMPLETE"
2024-01-04 11:25:19,437 [INFO] Successfully wrote 1000.0 to PLC register 1 for 10.202.240.12:502
2024-01-04 11:25:19,437 [DEBUG] Current transaction state - TRANSACTION_COMPLETE
2024-01-04 11:25:19,438 [DEBUG] Running transaction 2
2024-01-04 11:25:19,438 [DEBUG] SEND: 0x0 0x2 0x0 0x0 0x0 0x9 0x0 0x10 0x0 0x1 0x0 0x1 0x2 0x1 0xf4
2024-01-04 11:25:19,438 [DEBUG] New Transaction state "SENDING"
2024-01-04 11:25:19,438 [DEBUG] Changing transaction state from "SENDING" to "WAITING FOR REPLY"
2024-01-04 11:25:19,442 [DEBUG] Changing transaction state from "WAITING FOR REPLY" to "PROCESSING REPLY"
2024-01-04 11:25:19,442 [DEBUG] RECV: 0x0 0x2 0x0 0x0 0x0 0x6 0x0 0x10 0x0 0x1 0x0 0x1
2024-01-04 11:25:19,442 [DEBUG] Processing: 0x0 0x2 0x0 0x0 0x0 0x6 0x0 0x10 0x0 0x1 0x0 0x1
2024-01-04 11:25:19,442 [DEBUG] Factory Response[WriteMultipleRegistersResponse': 16]
2024-01-04 11:25:19,443 [DEBUG] Adding transaction 2
2024-01-04 11:25:19,443 [DEBUG] Getting transaction 2
2024-01-04 11:25:19,443 [DEBUG] Changing transaction state from "PROCESSING REPLY" to "TRANSACTION_COMPLETE"
2024-01-04 11:25:19,443 [INFO] Successfully wrote 50.0 to PLC register 2 for 10.202.240.12:502
2024-01-04 11:25:19,443 [INFO] server_inputs: [1000.0, 50.0]
2024-01-04 11:25:20,508 [DEBUG] [65459]
2024-01-04 11:25:20,508 [DEBUG] Current transaction state - TRANSACTION_COMPLETE
2024-01-04 11:25:20,508 [DEBUG] Running transaction 2
2024-01-04 11:25:20,508 [DEBUG] SEND: 0x0 0x2 0x0 0x0 0x0 0x9 0x0 0x10 0x0 0x0 0x0 0x1 0x2 0xff 0xb3
2024-01-04 11:25:20,508 [DEBUG] New Transaction state "SENDING"
2024-01-04 11:25:20,508 [DEBUG] Changing transaction state from "SENDING" to "WAITING FOR REPLY"
2024-01-04 11:25:21,063 [DEBUG] Changing transaction state from "WAITING FOR REPLY" to "PROCESSING REPLY"
2024-01-04 11:25:21,063 [DEBUG] RECV: 0x0 0x2 0x0 0x0 0x0 0x6 0x0 0x10 0x2 0x0 0x0 0x1
2024-01-04 11:25:21,063 [DEBUG] Processing: 0x0 0x2 0x0 0x0 0x0 0x6 0x0 0x10 0x2 0x0 0x0 0x1
2024-01-04 11:25:21,063 [DEBUG] Factory Response[WriteMultipleRegistersResponse': 16]
2024-01-04 11:25:21,063 [DEBUG] Adding transaction 2
2024-01-04 11:25:21,063 [DEBUG] Getting transaction 2
2024-01-04 11:25:21,063 [DEBUG] Changing transaction state from "PROCESSING REPLY" to "TRANSACTION_COMPLETE"
2024-01-04 11:25:21,064 [INFO] Successfully wrote -7.7 to PLC register 1 for 10.208.8.11:502
2024-01-04 11:25:21,064 [DEBUG] [10000, 500]
2024-01-04 11:25:21,064 [DEBUG] Current transaction state - TRANSACTION_COMPLETE
2024-01-04 11:25:21,064 [DEBUG] Running transaction 3
2024-01-04 11:25:21,064 [DEBUG] SEND: 0x0 0x3 0x0 0x0 0x0 0x9 0x0 0x10 0x0 0x0 0x0 0x1 0x2 0x27 0x10
2024-01-04 11:25:21,064 [DEBUG] New Transaction state "SENDING"
2024-01-04 11:25:21,064 [DEBUG] Changing transaction state from "SENDING" to "WAITING FOR REPLY"
2024-01-04 11:25:21,072 [DEBUG] Changing transaction state from "WAITING FOR REPLY" to "PROCESSING REPLY"
2024-01-04 11:25:21,072 [DEBUG] RECV: 0x0 0x3 0x0 0x0 0x0 0x6 0x0 0x10 0x0 0x0 0x0 0x1
2024-01-04 11:25:21,072 [DEBUG] Processing: 0x0 0x3 0x0 0x0 0x0 0x6 0x0 0x10 0x0 0x0 0x0 0x1
2024-01-04 11:25:21,072 [DEBUG] Factory Response[WriteMultipleRegistersResponse': 16]
2024-01-04 11:25:21,072 [DEBUG] Adding transaction 3
2024-01-04 11:25:21,072 [DEBUG] Getting transaction 3
2024-01-04 11:25:21,072 [DEBUG] Changing transaction state from "PROCESSING REPLY" to "TRANSACTION_COMPLETE"
2024-01-04 11:25:21,072 [INFO] Successfully wrote 1000.0 to PLC register 1 for 10.202.240.12:502
2024-01-04 11:25:21,072 [DEBUG] Current transaction state - TRANSACTION_COMPLETE
2024-01-04 11:25:21,072 [DEBUG] Running transaction 4
2024-01-04 11:25:21,072 [DEBUG] SEND: 0x0 0x4 0x0 0x0 0x0 0x9 0x0 0x10 0x0 0x1 0x0 0x1 0x2 0x1 0xf4
2024-01-04 11:25:21,072 [DEBUG] New Transaction state "SENDING"
2024-01-04 11:25:21,072 [DEBUG] Changing transaction state from "SENDING" to "WAITING FOR REPLY"
2024-01-04 11:25:21,077 [DEBUG] Changing transaction state from "WAITING FOR REPLY" to "PROCESSING REPLY"
2024-01-04 11:25:21,077 [DEBUG] RECV: 0x0 0x4 0x0 0x0 0x0 0x6 0x0 0x10 0x0 0x1 0x0 0x1
2024-01-04 11:25:21,077 [DEBUG] Processing: 0x0 0x4 0x0 0x0 0x0 0x6 0x0 0x10 0x0 0x1 0x0 0x1
2024-01-04 11:25:21,077 [DEBUG] Factory Response[WriteMultipleRegistersResponse': 16]
2024-01-04 11:25:21,077 [DEBUG] Adding transaction 4
2024-01-04 11:25:21,077 [DEBUG] Getting transaction 4
2024-01-04 11:25:21,077 [DEBUG] Changing transaction state from "PROCESSING REPLY" to "TRANSACTION_COMPLETE"
2024-01-04 11:25:21,078 [INFO] Successfully wrote 50.0 to PLC register 2 for 10.202.240.12:502
2024-01-04 11:25:21,078 [INFO] server_inputs: [1000.0, 50.0]
2024-01-04 11:25:22,122 [DEBUG] [65459]
2024-01-04 11:25:22,122 [DEBUG] Current transaction state - TRANSACTION_COMPLETE
2024-01-04 11:25:22,122 [DEBUG] Running transaction 3
2024-01-04 11:25:22,122 [DEBUG] SEND: 0x0 0x3 0x0 0x0 0x0 0x9 0x0 0x10 0x0 0x0 0x0 0x1 0x2 0xff 0xb3
2024-01-04 11:25:22,122 [DEBUG] New Transaction state "SENDING"
2024-01-04 11:25:22,122 [DEBUG] Changing transaction state from "SENDING" to "WAITING FOR REPLY"
2024-01-04 11:25:22,671 [DEBUG] Changing transaction state from "WAITING FOR REPLY" to "PROCESSING REPLY"
2024-01-04 11:25:22,671 [DEBUG] RECV: 0x0 0x3 0x0 0x0 0x0 0x6 0x0 0x10 0x2 0x0 0x0 0x1
2024-01-04 11:25:22,671 [DEBUG] Processing: 0x0 0x3 0x0 0x0 0x0 0x6 0x0 0x10 0x2 0x0 0x0 0x1
2024-01-04 11:25:22,671 [DEBUG] Factory Response[WriteMultipleRegistersResponse': 16]
2024-01-04 11:25:22,671 [DEBUG] Adding transaction 3
2024-01-04 11:25:22,672 [DEBUG] Getting transaction 3
2024-01-04 11:25:22,672 [DEBUG] Changing transaction state from "PROCESSING REPLY" to "TRANSACTION_COMPLETE"
2024-01-04 11:25:22,672 [INFO] Successfully wrote -7.7 to PLC register 1 for 10.208.8.11:502
2024-01-04 11:25:22,672 [DEBUG] [10000, 500]
2024-01-04 11:25:22,672 [DEBUG] Current transaction state - TRANSACTION_COMPLETE
2024-01-04 11:25:22,672 [DEBUG] Running transaction 5
2024-01-04 11:25:22,672 [DEBUG] SEND: 0x0 0x5 0x0 0x0 0x0 0x9 0x0 0x10 0x0 0x0 0x0 0x1 0x2 0x27 0x10
2024-01-04 11:25:22,672 [DEBUG] New Transaction state "SENDING"
2024-01-04 11:25:22,672 [DEBUG] Changing transaction state from "SENDING" to "WAITING FOR REPLY"
2024-01-04 11:25:22,676 [DEBUG] Changing transaction state from "WAITING FOR REPLY" to "PROCESSING REPLY"
2024-01-04 11:25:22,676 [DEBUG] RECV: 0x0 0x5 0x0 0x0 0x0 0x6 0x0 0x10 0x0 0x0 0x0 0x1
2024-01-04 11:25:22,676 [DEBUG] Processing: 0x0 0x5 0x0 0x0 0x0 0x6 0x0 0x10 0x0 0x0 0x0 0x1
2024-01-04 11:25:22,676 [DEBUG] Factory Response[WriteMultipleRegistersResponse': 16]
2024-01-04 11:25:22,676 [DEBUG] Adding transaction 5
2024-01-04 11:25:22,676 [DEBUG] Getting transaction 5
2024-01-04 11:25:22,676 [DEBUG] Changing transaction state from "PROCESSING REPLY" to "TRANSACTION_COMPLETE"
2024-01-04 11:25:22,676 [INFO] Successfully wrote 1000.0 to PLC register 1 for 10.202.240.12:502
2024-01-04 11:25:22,676 [DEBUG] Current transaction state - TRANSACTION_COMPLETE
2024-01-04 11:25:22,676 [DEBUG] Running transaction 6
2024-01-04 11:25:22,676 [DEBUG] SEND: 0x0 0x6 0x0 0x0 0x0 0x9 0x0 0x10 0x0 0x1 0x0 0x1 0x2 0x1 0xf4
2024-01-04 11:25:22,676 [DEBUG] New Transaction state "SENDING"
2024-01-04 11:25:22,676 [DEBUG] Changing transaction state from "SENDING" to "WAITING FOR REPLY"
2024-01-04 11:25:22,682 [DEBUG] Changing transaction state from "WAITING FOR REPLY" to "PROCESSING REPLY"
2024-01-04 11:25:22,682 [DEBUG] RECV: 0x0 0x6 0x0 0x0 0x0 0x6 0x0 0x10 0x0 0x1 0x0 0x1
2024-01-04 11:25:22,682 [DEBUG] Processing: 0x0 0x6 0x0 0x0 0x0 0x6 0x0 0x10 0x0 0x1 0x0 0x1
2024-01-04 11:25:22,682 [DEBUG] Factory Response[WriteMultipleRegistersResponse': 16]
2024-01-04 11:25:22,682 [DEBUG] Adding transaction 6
2024-01-04 11:25:22,682 [DEBUG] Getting transaction 6
2024-01-04 11:25:22,682 [DEBUG] Changing transaction state from "PROCESSING REPLY" to "TRANSACTION_COMPLETE"
2024-01-04 11:25:22,682 [INFO] Successfully wrote 50.0 to PLC register 2 for 10.202.240.12:502
2024-01-04 11:25:22,683 [INFO] server_inputs: [1000.0, 50.0]
2024-01-04 11:25:23,724 [DEBUG] [65459]
2024-01-04 11:25:23,724 [DEBUG] Current transaction state - TRANSACTION_COMPLETE
2024-01-04 11:25:23,724 [DEBUG] Running transaction 4
2024-01-04 11:25:23,724 [DEBUG] SEND: 0x0 0x4 0x0 0x0 0x0 0x9 0x0 0x10 0x0 0x0 0x0 0x1 0x2 0xff 0xb3
2024-01-04 11:25:23,724 [DEBUG] New Transaction state "SENDING"
2024-01-04 11:25:23,724 [DEBUG] Changing transaction state from "SENDING" to "WAITING FOR REPLY"
2024-01-04 11:25:24,261 [DEBUG] Changing transaction state from "WAITING FOR REPLY" to "PROCESSING REPLY"
2024-01-04 11:25:24,261 [DEBUG] RECV: 0x0 0x4 0x0 0x0 0x0 0x6 0x0 0x10 0x2 0x0 0x0 0x1
2024-01-04 11:25:24,261 [DEBUG] Processing: 0x0 0x4 0x0 0x0 0x0 0x6 0x0 0x10 0x2 0x0 0x0 0x1
2024-01-04 11:25:24,261 [DEBUG] Factory Response[WriteMultipleRegistersResponse': 16]
2024-01-04 11:25:24,261 [DEBUG] Adding transaction 4
2024-01-04 11:25:24,261 [DEBUG] Getting transaction 4
2024-01-04 11:25:24,261 [DEBUG] Changing transaction state from "PROCESSING REPLY" to "TRANSACTION_COMPLETE"
2024-01-04 11:25:24,261 [INFO] Successfully wrote -7.7 to PLC register 1 for 10.208.8.11:502
2024-01-04 11:25:24,261 [DEBUG] [10000, 500]
2024-01-04 11:25:24,261 [DEBUG] Current transaction state - TRANSACTION_COMPLETE
2024-01-04 11:25:24,261 [DEBUG] Running transaction 7
2024-01-04 11:25:24,261 [DEBUG] SEND: 0x0 0x7 0x0 0x0 0x0 0x9 0x0 0x10 0x0 0x0 0x0 0x1 0x2 0x27 0x10
2024-01-04 11:25:24,262 [DEBUG] New Transaction state "SENDING"
2024-01-04 11:25:24,262 [DEBUG] Changing transaction state from "SENDING" to "WAITING FOR REPLY"
2024-01-04 11:25:24,268 [DEBUG] Changing transaction state from "WAITING FOR REPLY" to "PROCESSING REPLY"
2024-01-04 11:25:24,268 [DEBUG] RECV: 0x0 0x7 0x0 0x0 0x0 0x6 0x0 0x10 0x0 0x0 0x0 0x1
2024-01-04 11:25:24,268 [DEBUG] Processing: 0x0 0x7 0x0 0x0 0x0 0x6 0x0 0x10 0x0 0x0 0x0 0x1
2024-01-04 11:25:24,268 [DEBUG] Factory Response[WriteMultipleRegistersResponse': 16]
2024-01-04 11:25:24,268 [DEBUG] Adding transaction 7
2024-01-04 11:25:24,268 [DEBUG] Getting transaction 7
2024-01-04 11:25:24,268 [DEBUG] Changing transaction state from "PROCESSING REPLY" to "TRANSACTION_COMPLETE"
2024-01-04 11:25:24,268 [INFO] Successfully wrote 1000.0 to PLC register 1 for 10.202.240.12:502
2024-01-04 11:25:24,268 [DEBUG] Current transaction state - TRANSACTION_COMPLETE
2024-01-04 11:25:24,268 [DEBUG] Running transaction 8
2024-01-04 11:25:24,269 [DEBUG] SEND: 0x0 0x8 0x0 0x0 0x0 0x9 0x0 0x10 0x0 0x1 0x0 0x1 0x2 0x1 0xf4
2024-01-04 11:25:24,269 [DEBUG] New Transaction state "SENDING"
2024-01-04 11:25:24,269 [DEBUG] Changing transaction state from "SENDING" to "WAITING FOR REPLY"
2024-01-04 11:25:24,273 [DEBUG] Changing transaction state from "WAITING FOR REPLY" to "PROCESSING REPLY"
2024-01-04 11:25:24,273 [DEBUG] RECV: 0x0 0x8 0x0 0x0 0x0 0x6 0x0 0x10 0x0 0x1 0x0 0x1
2024-01-04 11:25:24,273 [DEBUG] Processing: 0x0 0x8 0x0 0x0 0x0 0x6 0x0 0x10 0x0 0x1 0x0 0x1
2024-01-04 11:25:24,273 [DEBUG] Factory Response[WriteMultipleRegistersResponse': 16]
2024-01-04 11:25:24,274 [DEBUG] Adding transaction 8
2024-01-04 11:25:24,274 [DEBUG] Getting transaction 8
2024-01-04 11:25:24,274 [DEBUG] Changing transaction state from "PROCESSING REPLY" to "TRANSACTION_COMPLETE"
2024-01-04 11:25:24,274 [INFO] Successfully wrote 50.0 to PLC register 2 for 10.202.240.12:502
2024-01-04 11:25:24,274 [INFO] server_inputs: [1000.0, 50.0]
2024-01-04 11:25:25,305 [DEBUG] [65459]
2024-01-04 11:25:25,305 [DEBUG] Current transaction state - TRANSACTION_COMPLETE
2024-01-04 11:25:25,305 [DEBUG] Running transaction 5
2024-01-04 11:25:25,305 [DEBUG] SEND: 0x0 0x5 0x0 0x0 0x0 0x9 0x0 0x10 0x0 0x0 0x0 0x1 0x2 0xff 0xb3
2024-01-04 11:25:25,305 [DEBUG] New Transaction state "SENDING"
2024-01-04 11:25:25,305 [DEBUG] Changing transaction state from "SENDING" to "WAITING FOR REPLY"
2024-01-04 11:25:25,651 [DEBUG] Changing transaction state from "WAITING FOR REPLY" to "PROCESSING REPLY"
2024-01-04 11:25:25,651 [DEBUG] RECV: 0x0 0x5 0x0 0x0 0x0 0x6 0x0 0x10 0x2 0x0 0x0 0x1
2024-01-04 11:25:25,651 [DEBUG] Processing: 0x0 0x5 0x0 0x0 0x0 0x6 0x0 0x10 0x2 0x0 0x0 0x1
2024-01-04 11:25:25,651 [DEBUG] Factory Response[WriteMultipleRegistersResponse': 16]
2024-01-04 11:25:25,651 [DEBUG] Adding transaction 5
2024-01-04 11:25:25,651 [DEBUG] Getting transaction 5
2024-01-04 11:25:25,651 [DEBUG] Changing transaction state from "PROCESSING REPLY" to "TRANSACTION_COMPLETE"
2024-01-04 11:25:25,651 [INFO] Successfully wrote -7.7 to PLC register 1 for 10.208.8.11:502
2024-01-04 11:25:25,651 [DEBUG] [10000, 500]
2024-01-04 11:25:25,651 [DEBUG] Current transaction state - TRANSACTION_COMPLETE
2024-01-04 11:25:25,651 [DEBUG] Running transaction 9
2024-01-04 11:25:25,651 [DEBUG] SEND: 0x0 0x9 0x0 0x0 0x0 0x9 0x0 0x10 0x0 0x0 0x0 0x1 0x2 0x27 0x10
2024-01-04 11:25:25,652 [DEBUG] New Transaction state "SENDING"
2024-01-04 11:25:25,652 [DEBUG] Changing transaction state from "SENDING" to "WAITING FOR REPLY"
2024-01-04 11:25:25,660 [DEBUG] Changing transaction state from "WAITING FOR REPLY" to "PROCESSING REPLY"
2024-01-04 11:25:25,661 [DEBUG] RECV: 0x0 0x9 0x0 0x0 0x0 0x6 0x0 0x10 0x0 0x0 0x0 0x1
2024-01-04 11:25:25,661 [DEBUG] Processing: 0x0 0x9 0x0 0x0 0x0 0x6 0x0 0x10 0x0 0x0 0x0 0x1
2024-01-04 11:25:25,661 [DEBUG] Factory Response[WriteMultipleRegistersResponse': 16]
2024-01-04 11:25:25,661 [DEBUG] Adding transaction 9
2024-01-04 11:25:25,661 [DEBUG] Getting transaction 9
2024-01-04 11:25:25,661 [DEBUG] Changing transaction state from "PROCESSING REPLY" to "TRANSACTION_COMPLETE"
2024-01-04 11:25:25,661 [INFO] Successfully wrote 1000.0 to PLC register 1 for 10.202.240.12:502
2024-01-04 11:25:25,661 [DEBUG] Current transaction state - TRANSACTION_COMPLETE
2024-01-04 11:25:25,661 [DEBUG] Running transaction 10
2024-01-04 11:25:25,661 [DEBUG] SEND: 0x0 0xa 0x0 0x0 0x0 0x9 0x0 0x10 0x0 0x1 0x0 0x1 0x2 0x1 0xf4
2024-01-04 11:25:25,661 [DEBUG] New Transaction state "SENDING"
2024-01-04 11:25:25,661 [DEBUG] Changing transaction state from "SENDING" to "WAITING FOR REPLY"
2024-01-04 11:25:25,666 [DEBUG] Changing transaction state from "WAITING FOR REPLY" to "PROCESSING REPLY"
2024-01-04 11:25:25,666 [DEBUG] RECV: 0x0 0xa 0x0 0x0 0x0 0x6 0x0 0x10 0x0 0x1 0x0 0x1
2024-01-04 11:25:25,666 [DEBUG] Processing: 0x0 0xa 0x0 0x0 0x0 0x6 0x0 0x10 0x0 0x1 0x0 0x1
2024-01-04 11:25:25,666 [DEBUG] Factory Response[WriteMultipleRegistersResponse': 16]
2024-01-04 11:25:25,666 [DEBUG] Adding transaction 10
2024-01-04 11:25:25,666 [DEBUG] Getting transaction 10
2024-01-04 11:25:25,667 [DEBUG] Changing transaction state from "PROCESSING REPLY" to "TRANSACTION_COMPLETE"
2024-01-04 11:25:25,667 [INFO] Successfully wrote 50.0 to PLC register 2 for 10.202.240.12:502
2024-01-04 11:25:25,667 [INFO] server_inputs: [1000.0, 50.0]
2024-01-04 11:25:26,698 [DEBUG] [65459]
2024-01-04 11:25:26,699 [DEBUG] Current transaction state - TRANSACTION_COMPLETE
2024-01-04 11:25:26,699 [DEBUG] Running transaction 6
2024-01-04 11:25:26,699 [DEBUG] SEND: 0x0 0x6 0x0 0x0 0x0 0x9 0x0 0x10 0x0 0x0 0x0 0x1 0x2 0xff 0xb3
2024-01-04 11:25:26,699 [DEBUG] New Transaction state "SENDING"
2024-01-04 11:25:26,699 [DEBUG] Changing transaction state from "SENDING" to "WAITING FOR REPLY"
2024-01-04 11:25:27,012 [DEBUG] Changing transaction state from "WAITING FOR REPLY" to "PROCESSING REPLY"
2024-01-04 11:25:27,012 [DEBUG] RECV: 0x0 0x6 0x0 0x0 0x0 0x6 0x0 0x10 0x2 0x0 0x0 0x1
2024-01-04 11:25:27,012 [DEBUG] Processing: 0x0 0x6 0x0 0x0 0x0 0x6 0x0 0x10 0x2 0x0 0x0 0x1
2024-01-04 11:25:27,012 [DEBUG] Factory Response[WriteMultipleRegistersResponse': 16]
2024-01-04 11:25:27,012 [DEBUG] Adding transaction 6
2024-01-04 11:25:27,012 [DEBUG] Getting transaction 6
2024-01-04 11:25:27,012 [DEBUG] Changing transaction state from "PROCESSING REPLY" to "TRANSACTION_COMPLETE"
2024-01-04 11:25:27,012 [INFO] Successfully wrote -7.7 to PLC register 1 for 10.208.8.11:502
2024-01-04 11:25:27,012 [DEBUG] [10000, 500]
2024-01-04 11:25:27,012 [DEBUG] Current transaction state - TRANSACTION_COMPLETE
2024-01-04 11:25:27,012 [DEBUG] Running transaction 11
2024-01-04 11:25:27,012 [DEBUG] SEND: 0x0 0xb 0x0 0x0 0x0 0x9 0x0 0x10 0x0 0x0 0x0 0x1 0x2 0x27 0x10
2024-01-04 11:25:27,013 [DEBUG] New Transaction state "SENDING"
2024-01-04 11:25:27,013 [DEBUG] Changing transaction state from "SENDING" to "WAITING FOR REPLY"
2024-01-04 11:25:27,021 [DEBUG] Changing transaction state from "WAITING FOR REPLY" to "PROCESSING REPLY"
2024-01-04 11:25:27,021 [DEBUG] RECV: 0x0 0xb 0x0 0x0 0x0 0x6 0x0 0x10 0x0 0x0 0x0 0x1
2024-01-04 11:25:27,021 [DEBUG] Processing: 0x0 0xb 0x0 0x0 0x0 0x6 0x0 0x10 0x0 0x0 0x0 0x1
2024-01-04 11:25:27,021 [DEBUG] Factory Response[WriteMultipleRegistersResponse': 16]
2024-01-04 11:25:27,021 [DEBUG] Adding transaction 11
2024-01-04 11:25:27,021 [DEBUG] Getting transaction 11
2024-01-04 11:25:27,022 [DEBUG] Changing transaction state from "PROCESSING REPLY" to "TRANSACTION_COMPLETE"
2024-01-04 11:25:27,022 [INFO] Successfully wrote 1000.0 to PLC register 1 for 10.202.240.12:502
2024-01-04 11:25:27,022 [DEBUG] Current transaction state - TRANSACTION_COMPLETE
2024-01-04 11:25:27,022 [DEBUG] Running transaction 12
2024-01-04 11:25:27,022 [DEBUG] SEND: 0x0 0xc 0x0 0x0 0x0 0x9 0x0 0x10 0x0 0x1 0x0 0x1 0x2 0x1 0xf4
2024-01-04 11:25:27,022 [DEBUG] New Transaction state "SENDING"
2024-01-04 11:25:27,022 [DEBUG] Changing transaction state from "SENDING" to "WAITING FOR REPLY"
2024-01-04 11:25:27,026 [DEBUG] Changing transaction state from "WAITING FOR REPLY" to "PROCESSING REPLY"
2024-01-04 11:25:27,026 [DEBUG] RECV: 0x0 0xc 0x0 0x0 0x0 0x6 0x0 0x10 0x0 0x1 0x0 0x1
2024-01-04 11:25:27,027 [DEBUG] Processing: 0x0 0xc 0x0 0x0 0x0 0x6 0x0 0x10 0x0 0x1 0x0 0x1
2024-01-04 11:25:27,027 [DEBUG] Factory Response[WriteMultipleRegistersResponse': 16]
2024-01-04 11:25:27,027 [DEBUG] Adding transaction 12
2024-01-04 11:25:27,027 [DEBUG] Getting transaction 12
2024-01-04 11:25:27,027 [DEBUG] Changing transaction state from "PROCESSING REPLY" to "TRANSACTION_COMPLETE"
2024-01-04 11:25:27,027 [INFO] Successfully wrote 50.0 to PLC register 2 for 10.202.240.12:502
2024-01-04 11:25:27,027 [INFO] server_inputs: [1000.0, 50.0]
2024-01-04 11:25:28,069 [DEBUG] [65459]
2024-01-04 11:25:28,069 [DEBUG] Current transaction state - TRANSACTION_COMPLETE
2024-01-04 11:25:28,069 [DEBUG] Running transaction 7
2024-01-04 11:25:28,069 [DEBUG] SEND: 0x0 0x7 0x0 0x0 0x0 0x9 0x0 0x10 0x0 0x0 0x0 0x1 0x2 0xff 0xb3
2024-01-04 11:25:28,069 [DEBUG] New Transaction state "SENDING"
2024-01-04 11:25:28,069 [DEBUG] Changing transaction state from "SENDING" to "WAITING FOR REPLY"
2024-01-04 11:25:28,420 [DEBUG] Changing transaction state from "WAITING FOR REPLY" to "PROCESSING REPLY"
2024-01-04 11:25:28,420 [DEBUG] RECV: 0x0 0x7 0x0 0x0 0x0 0x6 0x0 0x10 0x2 0x0 0x0 0x1
2024-01-04 11:25:28,420 [DEBUG] Processing: 0x0 0x7 0x0 0x0 0x0 0x6 0x0 0x10 0x2 0x0 0x0 0x1
2024-01-04 11:25:28,420 [DEBUG] Factory Response[WriteMultipleRegistersResponse': 16]
2024-01-04 11:25:28,420 [DEBUG] Adding transaction 7
2024-01-04 11:25:28,420 [DEBUG] Getting transaction 7
2024-01-04 11:25:28,420 [DEBUG] Changing transaction state from "PROCESSING REPLY" to "TRANSACTION_COMPLETE"
2024-01-04 11:25:28,420 [INFO] Successfully wrote -7.7 to PLC register 1 for 10.208.8.11:502
2024-01-04 11:25:28,420 [DEBUG] [10000, 500]
2024-01-04 11:25:28,420 [DEBUG] Current transaction state - TRANSACTION_COMPLETE
2024-01-04 11:25:28,420 [DEBUG] Running transaction 13
2024-01-04 11:25:28,420 [DEBUG] SEND: 0x0 0xd 0x0 0x0 0x0 0x9 0x0 0x10 0x0 0x0 0x0 0x1 0x2 0x27 0x10
2024-01-04 11:25:28,420 [DEBUG] New Transaction state "SENDING"
2024-01-04 11:25:28,421 [DEBUG] Changing transaction state from "SENDING" to "WAITING FOR REPLY"
2024-01-04 11:25:28,427 [DEBUG] Changing transaction state from "WAITING FOR REPLY" to "PROCESSING REPLY"
2024-01-04 11:25:28,427 [DEBUG] RECV: 0x0 0xd 0x0 0x0 0x0 0x6 0x0 0x10 0x0 0x0 0x0 0x1
2024-01-04 11:25:28,427 [DEBUG] Processing: 0x0 0xd 0x0 0x0 0x0 0x6 0x0 0x10 0x0 0x0 0x0 0x1
2024-01-04 11:25:28,427 [DEBUG] Factory Response[WriteMultipleRegistersResponse': 16]
2024-01-04 11:25:28,427 [DEBUG] Adding transaction 13
2024-01-04 11:25:28,428 [DEBUG] Getting transaction 13
2024-01-04 11:25:28,428 [DEBUG] Changing transaction state from "PROCESSING REPLY" to "TRANSACTION_COMPLETE"
2024-01-04 11:25:28,428 [INFO] Successfully wrote 1000.0 to PLC register 1 for 10.202.240.12:502
2024-01-04 11:25:28,428 [DEBUG] Current transaction state - TRANSACTION_COMPLETE
2024-01-04 11:25:28,428 [DEBUG] Running transaction 14
2024-01-04 11:25:28,428 [DEBUG] SEND: 0x0 0xe 0x0 0x0 0x0 0x9 0x0 0x10 0x0 0x1 0x0 0x1 0x2 0x1 0xf4
2024-01-04 11:25:28,428 [DEBUG] New Transaction state "SENDING"
2024-01-04 11:25:28,428 [DEBUG] Changing transaction state from "SENDING" to "WAITING FOR REPLY"
2024-01-04 11:25:28,432 [DEBUG] Changing transaction state from "WAITING FOR REPLY" to "PROCESSING REPLY"
2024-01-04 11:25:28,433 [DEBUG] RECV: 0x0 0xe 0x0 0x0 0x0 0x6 0x0 0x10 0x0 0x1 0x0 0x1
2024-01-04 11:25:28,433 [DEBUG] Processing: 0x0 0xe 0x0 0x0 0x0 0x6 0x0 0x10 0x0 0x1 0x0 0x1
2024-01-04 11:25:28,433 [DEBUG] Factory Response[WriteMultipleRegistersResponse': 16]
2024-01-04 11:25:28,433 [DEBUG] Adding transaction 14
2024-01-04 11:25:28,433 [DEBUG] Getting transaction 14
2024-01-04 11:25:28,433 [DEBUG] Changing transaction state from "PROCESSING REPLY" to "TRANSACTION_COMPLETE"
2024-01-04 11:25:28,433 [INFO] Successfully wrote 50.0 to PLC register 2 for 10.202.240.12:502
2024-01-04 11:25:28,433 [INFO] server_inputs: [1000.0, 50.0]
2024-01-04 11:28:38,326 [DEBUG] [65459]
2024-01-04 11:28:39,060 [DEBUG] Connection to Modbus server established. Socket ('10.202.240.26', 11623)
2024-01-04 11:28:39,060 [DEBUG] Current transaction state - IDLE
2024-01-04 11:28:39,060 [DEBUG] Running transaction 1
2024-01-04 11:28:39,061 [DEBUG] SEND: 0x0 0x1 0x0 0x0 0x0 0x9 0x0 0x10 0x0 0x0 0x0 0x1 0x2 0xff 0xb3
2024-01-04 11:28:39,061 [DEBUG] New Transaction state "SENDING"
2024-01-04 11:28:39,061 [DEBUG] Changing transaction state from "SENDING" to "WAITING FOR REPLY"
2024-01-04 11:28:39,745 [DEBUG] Changing transaction state from "WAITING FOR REPLY" to "PROCESSING REPLY"
2024-01-04 11:28:39,745 [DEBUG] RECV: 0x0 0x1 0x0 0x0 0x0 0x6 0x0 0x10 0x2 0x0 0x0 0x1
2024-01-04 11:28:39,745 [DEBUG] Processing: 0x0 0x1 0x0 0x0 0x0 0x6 0x0 0x10 0x2 0x0 0x0 0x1
2024-01-04 11:28:39,745 [DEBUG] Factory Response[WriteMultipleRegistersResponse': 16]
2024-01-04 11:28:39,746 [DEBUG] Adding transaction 1
2024-01-04 11:28:39,746 [DEBUG] Getting transaction 1
2024-01-04 11:28:39,746 [DEBUG] Changing transaction state from "PROCESSING REPLY" to "TRANSACTION_COMPLETE"
2024-01-04 11:28:39,746 [INFO] Successfully wrote -7.7 to PLC register 1 for 10.208.8.11:502
2024-01-04 11:28:39,746 [DEBUG] [207, 10000]
2024-01-04 11:28:39,770 [DEBUG] Connection to Modbus server established. Socket ('10.202.240.26', 11624)
2024-01-04 11:28:39,770 [DEBUG] Current transaction state - IDLE
2024-01-04 11:28:39,770 [DEBUG] Running transaction 1
2024-01-04 11:28:39,770 [DEBUG] SEND: 0x0 0x1 0x0 0x0 0x0 0x9 0x0 0x10 0x0 0x0 0x0 0x1 0x2 0x0 0xcf
2024-01-04 11:28:39,770 [DEBUG] New Transaction state "SENDING"
2024-01-04 11:28:39,770 [DEBUG] Changing transaction state from "SENDING" to "WAITING FOR REPLY"
2024-01-04 11:28:39,778 [DEBUG] Changing transaction state from "WAITING FOR REPLY" to "PROCESSING REPLY"
2024-01-04 11:28:39,778 [DEBUG] RECV: 0x0 0x1 0x0 0x0 0x0 0x6 0x0 0x10 0x0 0x0 0x0 0x1
2024-01-04 11:28:39,779 [DEBUG] Processing: 0x0 0x1 0x0 0x0 0x0 0x6 0x0 0x10 0x0 0x0 0x0 0x1
2024-01-04 11:28:39,779 [DEBUG] Factory Response[WriteMultipleRegistersResponse': 16]
2024-01-04 11:28:39,779 [DEBUG] Adding transaction 1
2024-01-04 11:28:39,779 [DEBUG] Getting transaction 1
2024-01-04 11:28:39,779 [DEBUG] Changing transaction state from "PROCESSING REPLY" to "TRANSACTION_COMPLETE"
2024-01-04 11:28:39,779 [INFO] Successfully wrote 20.74089325256177 to PLC register 1 for 10.202.240.12:502
2024-01-04 11:28:39,779 [DEBUG] Current transaction state - TRANSACTION_COMPLETE
2024-01-04 11:28:39,779 [DEBUG] Running transaction 2
2024-01-04 11:28:39,779 [DEBUG] SEND: 0x0 0x2 0x0 0x0 0x0 0x9 0x0 0x10 0x0 0x1 0x0 0x1 0x2 0x27 0x10
2024-01-04 11:28:39,779 [DEBUG] New Transaction state "SENDING"
2024-01-04 11:28:39,779 [DEBUG] Changing transaction state from "SENDING" to "WAITING FOR REPLY"
2024-01-04 11:28:39,784 [DEBUG] Changing transaction state from "WAITING FOR REPLY" to "PROCESSING REPLY"
2024-01-04 11:28:39,784 [DEBUG] RECV: 0x0 0x2 0x0 0x0 0x0 0x6 0x0 0x10 0x0 0x1 0x0 0x1
2024-01-04 11:28:39,784 [DEBUG] Processing: 0x0 0x2 0x0 0x0 0x0 0x6 0x0 0x10 0x0 0x1 0x0 0x1
2024-01-04 11:28:39,784 [DEBUG] Factory Response[WriteMultipleRegistersResponse': 16]
2024-01-04 11:28:39,784 [DEBUG] Adding transaction 2
2024-01-04 11:28:39,784 [DEBUG] Getting transaction 2
2024-01-04 11:28:39,784 [DEBUG] Changing transaction state from "PROCESSING REPLY" to "TRANSACTION_COMPLETE"
2024-01-04 11:28:39,784 [INFO] Successfully wrote 1000.0 to PLC register 2 for 10.202.240.12:502
2024-01-04 11:28:39,784 [INFO] server_inputs: [20.74089325256177, 1000.0]
2024-01-04 11:28:40,848 [DEBUG] [65459]
2024-01-04 11:28:40,848 [DEBUG] Current transaction state - TRANSACTION_COMPLETE
2024-01-04 11:28:40,848 [DEBUG] Running transaction 2
2024-01-04 11:28:40,848 [DEBUG] SEND: 0x0 0x2 0x0 0x0 0x0 0x9 0x0 0x10 0x0 0x0 0x0 0x1 0x2 0xff 0xb3
2024-01-04 11:28:40,848 [DEBUG] New Transaction state "SENDING"
2024-01-04 11:28:40,848 [DEBUG] Changing transaction state from "SENDING" to "WAITING FOR REPLY"
2024-01-04 11:28:41,146 [DEBUG] Changing transaction state from "WAITING FOR REPLY" to "PROCESSING REPLY"
2024-01-04 11:28:41,147 [DEBUG] RECV: 0x0 0x2 0x0 0x0 0x0 0x6 0x0 0x10 0x2 0x0 0x0 0x1
2024-01-04 11:28:41,147 [DEBUG] Processing: 0x0 0x2 0x0 0x0 0x0 0x6 0x0 0x10 0x2 0x0 0x0 0x1
2024-01-04 11:28:41,147 [DEBUG] Factory Response[WriteMultipleRegistersResponse': 16]
2024-01-04 11:28:41,147 [DEBUG] Adding transaction 2
2024-01-04 11:28:41,147 [DEBUG] Getting transaction 2
2024-01-04 11:28:41,147 [DEBUG] Changing transaction state from "PROCESSING REPLY" to "TRANSACTION_COMPLETE"
2024-01-04 11:28:41,147 [INFO] Successfully wrote -7.7 to PLC register 1 for 10.208.8.11:502
2024-01-04 11:28:41,147 [DEBUG] [65229, 10000]
2024-01-04 11:28:41,147 [DEBUG] Current transaction state - TRANSACTION_COMPLETE
2024-01-04 11:28:41,147 [DEBUG] Running transaction 3
2024-01-04 11:28:41,147 [DEBUG] SEND: 0x0 0x3 0x0 0x0 0x0 0x9 0x0 0x10 0x0 0x0 0x0 0x1 0x2 0xfe 0xcd
2024-01-04 11:28:41,147 [DEBUG] New Transaction state "SENDING"
2024-01-04 11:28:41,147 [DEBUG] Changing transaction state from "SENDING" to "WAITING FOR REPLY"
2024-01-04 11:28:41,156 [DEBUG] Changing transaction state from "WAITING FOR REPLY" to "PROCESSING REPLY"
2024-01-04 11:28:41,157 [DEBUG] RECV: 0x0 0x3 0x0 0x0 0x0 0x6 0x0 0x10 0x0 0x0 0x0 0x1
2024-01-04 11:28:41,157 [DEBUG] Processing: 0x0 0x3 0x0 0x0 0x0 0x6 0x0 0x10 0x0 0x0 0x0 0x1
2024-01-04 11:28:41,157 [DEBUG] Factory Response[WriteMultipleRegistersResponse': 16]
2024-01-04 11:28:41,157 [DEBUG] Adding transaction 3
2024-01-04 11:28:41,157 [DEBUG] Getting transaction 3
2024-01-04 11:28:41,157 [DEBUG] Changing transaction state from "PROCESSING REPLY" to "TRANSACTION_COMPLETE"
2024-01-04 11:28:41,157 [INFO] Successfully wrote -30.71997015730642 to PLC register 1 for 10.202.240.12:502
2024-01-04 11:28:41,157 [DEBUG] Current transaction state - TRANSACTION_COMPLETE
2024-01-04 11:28:41,157 [DEBUG] Running transaction 4
2024-01-04 11:28:41,157 [DEBUG] SEND: 0x0 0x4 0x0 0x0 0x0 0x9 0x0 0x10 0x0 0x1 0x0 0x1 0x2 0x27 0x10
2024-01-04 11:28:41,157 [DEBUG] New Transaction state "SENDING"
2024-01-04 11:28:41,157 [DEBUG] Changing transaction state from "SENDING" to "WAITING FOR REPLY"
2024-01-04 11:28:41,165 [DEBUG] Changing transaction state from "WAITING FOR REPLY" to "PROCESSING REPLY"
2024-01-04 11:28:41,165 [DEBUG] RECV: 0x0 0x4 0x0 0x0 0x0 0x6 0x0 0x10 0x0 0x1 0x0 0x1
2024-01-04 11:28:41,165 [DEBUG] Processing: 0x0 0x4 0x0 0x0 0x0 0x6 0x0 0x10 0x0 0x1 0x0 0x1
2024-01-04 11:28:41,165 [DEBUG] Factory Response[WriteMultipleRegistersResponse': 16]
2024-01-04 11:28:41,165 [DEBUG] Adding transaction 4
2024-01-04 11:28:41,165 [DEBUG] Getting transaction 4
2024-01-04 11:28:41,165 [DEBUG] Changing transaction state from "PROCESSING REPLY" to "TRANSACTION_COMPLETE"
2024-01-04 11:28:41,165 [INFO] Successfully wrote 1000.0 to PLC register 2 for 10.202.240.12:502
2024-01-04 11:28:41,165 [INFO] server_inputs: [-30.71997015730642, 1000.0]
2024-01-04 11:28:42,205 [DEBUG] [65459]
2024-01-04 11:28:42,205 [DEBUG] Current transaction state - TRANSACTION_COMPLETE
2024-01-04 11:28:42,205 [DEBUG] Running transaction 3
2024-01-04 11:28:42,205 [DEBUG] SEND: 0x0 0x3 0x0 0x0 0x0 0x9 0x0 0x10 0x0 0x0 0x0 0x1 0x2 0xff 0xb3
2024-01-04 11:28:42,206 [DEBUG] New Transaction state "SENDING"
2024-01-04 11:28:42,206 [DEBUG] Changing transaction state from "SENDING" to "WAITING FOR REPLY"
2024-01-04 11:28:42,517 [DEBUG] Changing transaction state from "WAITING FOR REPLY" to "PROCESSING REPLY"
2024-01-04 11:28:42,517 [DEBUG] RECV: 0x0 0x3 0x0 0x0 0x0 0x6 0x0 0x10 0x2 0x0 0x0 0x1
2024-01-04 11:28:42,517 [DEBUG] Processing: 0x0 0x3 0x0 0x0 0x0 0x6 0x0 0x10 0x2 0x0 0x0 0x1
2024-01-04 11:28:42,517 [DEBUG] Factory Response[WriteMultipleRegistersResponse': 16]
2024-01-04 11:28:42,517 [DEBUG] Adding transaction 3
2024-01-04 11:28:42,517 [DEBUG] Getting transaction 3
2024-01-04 11:28:42,517 [DEBUG] Changing transaction state from "PROCESSING REPLY" to "TRANSACTION_COMPLETE"
2024-01-04 11:28:42,517 [INFO] Successfully wrote -7.7 to PLC register 1 for 10.208.8.11:502
2024-01-04 11:28:42,517 [DEBUG] [64516, 10000]
2024-01-04 11:28:42,517 [DEBUG] Current transaction state - TRANSACTION_COMPLETE
2024-01-04 11:28:42,517 [DEBUG] Running transaction 5
2024-01-04 11:28:42,517 [DEBUG] SEND: 0x0 0x5 0x0 0x0 0x0 0x9 0x0 0x10 0x0 0x0 0x0 0x1 0x2 0xfc 0x4
2024-01-04 11:28:42,517 [DEBUG] New Transaction state "SENDING"
2024-01-04 11:28:42,517 [DEBUG] Changing transaction state from "SENDING" to "WAITING FOR REPLY"
2024-01-04 11:28:42,525 [DEBUG] Changing transaction state from "WAITING FOR REPLY" to "PROCESSING REPLY"
2024-01-04 11:28:42,525 [DEBUG] RECV: 0x0 0x5 0x0 0x0 0x0 0x6 0x0 0x10 0x0 0x0 0x0 0x1
2024-01-04 11:28:42,525 [DEBUG] Processing: 0x0 0x5 0x0 0x0 0x0 0x6 0x0 0x10 0x0 0x0 0x0 0x1
2024-01-04 11:28:42,526 [DEBUG] Factory Response[WriteMultipleRegistersResponse': 16]
2024-01-04 11:28:42,526 [DEBUG] Adding transaction 5
2024-01-04 11:28:42,526 [DEBUG] Getting transaction 5
2024-01-04 11:28:42,526 [DEBUG] Changing transaction state from "PROCESSING REPLY" to "TRANSACTION_COMPLETE"
2024-01-04 11:28:42,526 [INFO] Successfully wrote -102.06110738812777 to PLC register 1 for 10.202.240.12:502
2024-01-04 11:28:42,526 [DEBUG] Current transaction state - TRANSACTION_COMPLETE
2024-01-04 11:28:42,526 [DEBUG] Running transaction 6
2024-01-04 11:28:42,526 [DEBUG] SEND: 0x0 0x6 0x0 0x0 0x0 0x9 0x0 0x10 0x0 0x1 0x0 0x1 0x2 0x27 0x10
2024-01-04 11:28:42,526 [DEBUG] New Transaction state "SENDING"
2024-01-04 11:28:42,526 [DEBUG] Changing transaction state from "SENDING" to "WAITING FOR REPLY"
2024-01-04 11:28:42,540 [DEBUG] Changing transaction state from "WAITING FOR REPLY" to "PROCESSING REPLY"
2024-01-04 11:28:42,540 [DEBUG] RECV: 0x0 0x6 0x0 0x0 0x0 0x6 0x0 0x10 0x0 0x1 0x0 0x1
2024-01-04 11:28:42,540 [DEBUG] Processing: 0x0 0x6 0x0 0x0 0x0 0x6 0x0 0x10 0x0 0x1 0x0 0x1
2024-01-04 11:28:42,540 [DEBUG] Factory Response[WriteMultipleRegistersResponse': 16]
2024-01-04 11:28:42,540 [DEBUG] Adding transaction 6
2024-01-04 11:28:42,541 [DEBUG] Getting transaction 6
2024-01-04 11:28:42,541 [DEBUG] Changing transaction state from "PROCESSING REPLY" to "TRANSACTION_COMPLETE"
2024-01-04 11:28:42,541 [INFO] Successfully wrote 1000.0 to PLC register 2 for 10.202.240.12:502
2024-01-04 11:28:42,541 [INFO] server_inputs: [-102.06110738812777, 1000.0]
2024-01-04 11:28:43,579 [DEBUG] [65459]
2024-01-04 11:28:43,579 [DEBUG] Current transaction state - TRANSACTION_COMPLETE
2024-01-04 11:28:43,579 [DEBUG] Running transaction 4
2024-01-04 11:28:43,579 [DEBUG] SEND: 0x0 0x4 0x0 0x0 0x0 0x9 0x0 0x10 0x0 0x0 0x0 0x1 0x2 0xff 0xb3
2024-01-04 11:28:43,579 [DEBUG] New Transaction state "SENDING"
2024-01-04 11:28:43,580 [DEBUG] Changing transaction state from "SENDING" to "WAITING FOR REPLY"
2024-01-04 11:28:43,881 [DEBUG] Changing transaction state from "WAITING FOR REPLY" to "PROCESSING REPLY"
2024-01-04 11:28:43,881 [DEBUG] RECV: 0x0 0x4 0x0 0x0 0x0 0x6 0x0 0x10 0x2 0x0 0x0 0x1
2024-01-04 11:28:43,881 [DEBUG] Processing: 0x0 0x4 0x0 0x0 0x0 0x6 0x0 0x10 0x2 0x0 0x0 0x1
2024-01-04 11:28:43,881 [DEBUG] Factory Response[WriteMultipleRegistersResponse': 16]
2024-01-04 11:28:43,882 [DEBUG] Adding transaction 4
2024-01-04 11:28:43,882 [DEBUG] Getting transaction 4
2024-01-04 11:28:43,882 [DEBUG] Changing transaction state from "PROCESSING REPLY" to "TRANSACTION_COMPLETE"
2024-01-04 11:28:43,882 [INFO] Successfully wrote -7.7 to PLC register 1 for 10.208.8.11:502
2024-01-04 11:28:43,882 [DEBUG] [64008, 10000]
2024-01-04 11:28:43,882 [DEBUG] Current transaction state - TRANSACTION_COMPLETE
2024-01-04 11:28:43,882 [DEBUG] Running transaction 7
2024-01-04 11:28:43,882 [DEBUG] SEND: 0x0 0x7 0x0 0x0 0x0 0x9 0x0 0x10 0x0 0x0 0x0 0x1 0x2 0xfa 0x8
2024-01-04 11:28:43,882 [DEBUG] New Transaction state "SENDING"
2024-01-04 11:28:43,882 [DEBUG] Changing transaction state from "SENDING" to "WAITING FOR REPLY"
2024-01-04 11:28:43,889 [DEBUG] Changing transaction state from "WAITING FOR REPLY" to "PROCESSING REPLY"
2024-01-04 11:28:43,889 [DEBUG] RECV: 0x0 0x7 0x0 0x0 0x0 0x6 0x0 0x10 0x0 0x0 0x0 0x1
2024-01-04 11:28:43,889 [DEBUG] Processing: 0x0 0x7 0x0 0x0 0x0 0x6 0x0 0x10 0x0 0x0 0x0 0x1
2024-01-04 11:28:43,889 [DEBUG] Factory Response[WriteMultipleRegistersResponse': 16]
2024-01-04 11:28:43,889 [DEBUG] Adding transaction 7
2024-01-04 11:28:43,889 [DEBUG] Getting transaction 7
2024-01-04 11:28:43,889 [DEBUG] Changing transaction state from "PROCESSING REPLY" to "TRANSACTION_COMPLETE"
2024-01-04 11:28:43,889 [INFO] Successfully wrote -152.8232377711312 to PLC register 1 for 10.202.240.12:502
2024-01-04 11:28:43,889 [DEBUG] Current transaction state - TRANSACTION_COMPLETE
2024-01-04 11:28:43,889 [DEBUG] Running transaction 8
2024-01-04 11:28:43,889 [DEBUG] SEND: 0x0 0x8 0x0 0x0 0x0 0x9 0x0 0x10 0x0 0x1 0x0 0x1 0x2 0x27 0x10
2024-01-04 11:28:43,889 [DEBUG] New Transaction state "SENDING"
2024-01-04 11:28:43,889 [DEBUG] Changing transaction state from "SENDING" to "WAITING FOR REPLY"
2024-01-04 11:28:43,895 [DEBUG] Changing transaction state from "WAITING FOR REPLY" to "PROCESSING REPLY"
2024-01-04 11:28:43,895 [DEBUG] RECV: 0x0 0x8 0x0 0x0 0x0 0x6 0x0 0x10 0x0 0x1 0x0 0x1
2024-01-04 11:28:43,895 [DEBUG] Processing: 0x0 0x8 0x0 0x0 0x0 0x6 0x0 0x10 0x0 0x1 0x0 0x1
2024-01-04 11:28:43,895 [DEBUG] Factory Response[WriteMultipleRegistersResponse': 16]
2024-01-04 11:28:43,895 [DEBUG] Adding transaction 8
2024-01-04 11:28:43,895 [DEBUG] Getting transaction 8
2024-01-04 11:28:43,895 [DEBUG] Changing transaction state from "PROCESSING REPLY" to "TRANSACTION_COMPLETE"
2024-01-04 11:28:43,895 [INFO] Successfully wrote 1000.0 to PLC register 2 for 10.202.240.12:502
2024-01-04 11:28:43,895 [INFO] server_inputs: [-152.8232377711312, 1000.0]
2024-01-04 11:28:44,942 [DEBUG] [65459]
2024-01-04 11:28:44,942 [DEBUG] Current transaction state - TRANSACTION_COMPLETE
2024-01-04 11:28:44,942 [DEBUG] Running transaction 5
2024-01-04 11:28:44,942 [DEBUG] SEND: 0x0 0x5 0x0 0x0 0x0 0x9 0x0 0x10 0x0 0x0 0x0 0x1 0x2 0xff 0xb3
2024-01-04 11:28:44,942 [DEBUG] New Transaction state "SENDING"
2024-01-04 11:28:44,942 [DEBUG] Changing transaction state from "SENDING" to "WAITING FOR REPLY"
2024-01-04 11:28:45,241 [DEBUG] Changing transaction state from "WAITING FOR REPLY" to "PROCESSING REPLY"
2024-01-04 11:28:45,241 [DEBUG] RECV: 0x0 0x5 0x0 0x0 0x0 0x6 0x0 0x10 0x2 0x0 0x0 0x1
2024-01-04 11:28:45,241 [DEBUG] Processing: 0x0 0x5 0x0 0x0 0x0 0x6 0x0 0x10 0x2 0x0 0x0 0x1
2024-01-04 11:28:45,241 [DEBUG] Factory Response[WriteMultipleRegistersResponse': 16]
2024-01-04 11:28:45,241 [DEBUG] Adding transaction 5
2024-01-04 11:28:45,241 [DEBUG] Getting transaction 5
2024-01-04 11:28:45,241 [DEBUG] Changing transaction state from "PROCESSING REPLY" to "TRANSACTION_COMPLETE"
2024-01-04 11:28:45,241 [INFO] Successfully wrote -7.7 to PLC register 1 for 10.208.8.11:502
2024-01-04 11:28:45,242 [DEBUG] [63631, 10000]
2024-01-04 11:28:45,242 [DEBUG] Current transaction state - TRANSACTION_COMPLETE
2024-01-04 11:28:45,242 [DEBUG] Running transaction 9
2024-01-04 11:28:45,242 [DEBUG] SEND: 0x0 0x9 0x0 0x0 0x0 0x9 0x0 0x10 0x0 0x0 0x0 0x1 0x2 0xf8 0x8f
2024-01-04 11:28:45,242 [DEBUG] New Transaction state "SENDING"
2024-01-04 11:28:45,242 [DEBUG] Changing transaction state from "SENDING" to "WAITING FOR REPLY"
2024-01-04 11:28:45,250 [DEBUG] Changing transaction state from "WAITING FOR REPLY" to "PROCESSING REPLY"
2024-01-04 11:28:45,250 [DEBUG] RECV: 0x0 0x9 0x0 0x0 0x0 0x6 0x0 0x10 0x0 0x0 0x0 0x1
2024-01-04 11:28:45,250 [DEBUG] Processing: 0x0 0x9 0x0 0x0 0x0 0x6 0x0 0x10 0x0 0x0 0x0 0x1
2024-01-04 11:28:45,250 [DEBUG] Factory Response[WriteMultipleRegistersResponse': 16]
2024-01-04 11:28:45,250 [DEBUG] Adding transaction 9
2024-01-04 11:28:45,250 [DEBUG] Getting transaction 9
2024-01-04 11:28:45,250 [DEBUG] Changing transaction state from "PROCESSING REPLY" to "TRANSACTION_COMPLETE"
2024-01-04 11:28:45,250 [INFO] Successfully wrote -190.58195850796886 to PLC register 1 for 10.202.240.12:502
2024-01-04 11:28:45,250 [DEBUG] Current transaction state - TRANSACTION_COMPLETE
2024-01-04 11:28:45,250 [DEBUG] Running transaction 10
2024-01-04 11:28:45,250 [DEBUG] SEND: 0x0 0xa 0x0 0x0 0x0 0x9 0x0 0x10 0x0 0x1 0x0 0x1 0x2 0x27 0x10
2024-01-04 11:28:45,250 [DEBUG] New Transaction state "SENDING"
2024-01-04 11:28:45,251 [DEBUG] Changing transaction state from "SENDING" to "WAITING FOR REPLY"
2024-01-04 11:28:45,260 [DEBUG] Changing transaction state from "WAITING FOR REPLY" to "PROCESSING REPLY"
2024-01-04 11:28:45,260 [DEBUG] RECV: 0x0 0xa 0x0 0x0 0x0 0x6 0x0 0x10 0x0 0x1 0x0 0x1
2024-01-04 11:28:45,260 [DEBUG] Processing: 0x0 0xa 0x0 0x0 0x0 0x6 0x0 0x10 0x0 0x1 0x0 0x1
2024-01-04 11:28:45,260 [DEBUG] Factory Response[WriteMultipleRegistersResponse': 16]
2024-01-04 11:28:45,260 [DEBUG] Adding transaction 10
2024-01-04 11:28:45,260 [DEBUG] Getting transaction 10
2024-01-04 11:28:45,260 [DEBUG] Changing transaction state from "PROCESSING REPLY" to "TRANSACTION_COMPLETE"
2024-01-04 11:28:45,260 [INFO] Successfully wrote 1000.0 to PLC register 2 for 10.202.240.12:502
2024-01-04 11:28:45,260 [INFO] server_inputs: [-190.58195850796886, 1000.0]
2024-01-04 11:28:46,290 [DEBUG] [65459]
2024-01-04 11:28:46,291 [DEBUG] Current transaction state - TRANSACTION_COMPLETE
2024-01-04 11:28:46,291 [DEBUG] Running transaction 6
2024-01-04 11:28:46,291 [DEBUG] SEND: 0x0 0x6 0x0 0x0 0x0 0x9 0x0 0x10 0x0 0x0 0x0 0x1 0x2 0xff 0xb3
2024-01-04 11:28:46,291 [DEBUG] New Transaction state "SENDING"
2024-01-04 11:28:46,291 [DEBUG] Changing transaction state from "SENDING" to "WAITING FOR REPLY"
2024-01-04 11:28:46,579 [DEBUG] Changing transaction state from "WAITING FOR REPLY" to "PROCESSING REPLY"
2024-01-04 11:28:46,579 [DEBUG] RECV: 0x0 0x6 0x0 0x0 0x0 0x6 0x0 0x10 0x2 0x0 0x0 0x1
2024-01-04 11:28:46,579 [DEBUG] Processing: 0x0 0x6 0x0 0x0 0x0 0x6 0x0 0x10 0x2 0x0 0x0 0x1
2024-01-04 11:28:46,579 [DEBUG] Factory Response[WriteMultipleRegistersResponse': 16]
2024-01-04 11:28:46,579 [DEBUG] Adding transaction 6
2024-01-04 11:28:46,580 [DEBUG] Getting transaction 6
2024-01-04 11:28:46,580 [DEBUG] Changing transaction state from "PROCESSING REPLY" to "TRANSACTION_COMPLETE"
2024-01-04 11:28:46,580 [INFO] Successfully wrote -7.7 to PLC register 1 for 10.208.8.11:502
2024-01-04 11:28:46,580 [DEBUG] [63362, 10000]
2024-01-04 11:28:46,580 [DEBUG] Current transaction state - TRANSACTION_COMPLETE
2024-01-04 11:28:46,580 [DEBUG] Running transaction 11
2024-01-04 11:28:46,580 [DEBUG] SEND: 0x0 0xb 0x0 0x0 0x0 0x9 0x0 0x10 0x0 0x0 0x0 0x1 0x2 0xf7 0x82
2024-01-04 11:28:46,580 [DEBUG] New Transaction state "SENDING"
2024-01-04 11:28:46,580 [DEBUG] Changing transaction state from "SENDING" to "WAITING FOR REPLY"
2024-01-04 11:28:46,588 [DEBUG] Changing transaction state from "WAITING FOR REPLY" to "PROCESSING REPLY"
2024-01-04 11:28:46,588 [DEBUG] RECV: 0x0 0xb 0x0 0x0 0x0 0x6 0x0 0x10 0x0 0x0 0x0 0x1
2024-01-04 11:28:46,588 [DEBUG] Processing: 0x0 0xb 0x0 0x0 0x0 0x6 0x0 0x10 0x0 0x0 0x0 0x1
2024-01-04 11:28:46,588 [DEBUG] Factory Response[WriteMultipleRegistersResponse': 16]
2024-01-04 11:28:46,588 [DEBUG] Adding transaction 11
2024-01-04 11:28:46,589 [DEBUG] Getting transaction 11
2024-01-04 11:28:46,589 [DEBUG] Changing transaction state from "PROCESSING REPLY" to "TRANSACTION_COMPLETE"
2024-01-04 11:28:46,589 [INFO] Successfully wrote -217.46217623699744 to PLC register 1 for 10.202.240.12:502
2024-01-04 11:28:46,589 [DEBUG] Current transaction state - TRANSACTION_COMPLETE
2024-01-04 11:28:46,589 [DEBUG] Running transaction 12
2024-01-04 11:28:46,589 [DEBUG] SEND: 0x0 0xc 0x0 0x0 0x0 0x9 0x0 0x10 0x0 0x1 0x0 0x1 0x2 0x27 0x10
2024-01-04 11:28:46,589 [DEBUG] New Transaction state "SENDING"
2024-01-04 11:28:46,589 [DEBUG] Changing transaction state from "SENDING" to "WAITING FOR REPLY"
2024-01-04 11:28:46,593 [DEBUG] Changing transaction state from "WAITING FOR REPLY" to "PROCESSING REPLY"
2024-01-04 11:28:46,593 [DEBUG] RECV: 0x0 0xc 0x0 0x0 0x0 0x6 0x0 0x10 0x0 0x1 0x0 0x1
2024-01-04 11:28:46,594 [DEBUG] Processing: 0x0 0xc 0x0 0x0 0x0 0x6 0x0 0x10 0x0 0x1 0x0 0x1
2024-01-04 11:28:46,594 [DEBUG] Factory Response[WriteMultipleRegistersResponse': 16]
2024-01-04 11:28:46,594 [DEBUG] Adding transaction 12
2024-01-04 11:28:46,594 [DEBUG] Getting transaction 12
2024-01-04 11:28:46,594 [DEBUG] Changing transaction state from "PROCESSING REPLY" to "TRANSACTION_COMPLETE"
2024-01-04 11:28:46,594 [INFO] Successfully wrote 1000.0 to PLC register 2 for 10.202.240.12:502
2024-01-04 11:28:46,594 [INFO] server_inputs: [-217.46217623699744, 1000.0]
2024-01-04 11:28:47,629 [DEBUG] [65459]
2024-01-04 11:28:47,629 [DEBUG] Current transaction state - TRANSACTION_COMPLETE
2024-01-04 11:28:47,630 [DEBUG] Running transaction 7
2024-01-04 11:28:47,630 [DEBUG] SEND: 0x0 0x7 0x0 0x0 0x0 0x9 0x0 0x10 0x0 0x0 0x0 0x1 0x2 0xff 0xb3
2024-01-04 11:28:47,630 [DEBUG] New Transaction state "SENDING"
2024-01-04 11:28:47,630 [DEBUG] Changing transaction state from "SENDING" to "WAITING FOR REPLY"
2024-01-04 11:28:47,932 [DEBUG] Changing transaction state from "WAITING FOR REPLY" to "PROCESSING REPLY"
2024-01-04 11:28:47,932 [DEBUG] RECV: 0x0 0x7 0x0 0x0 0x0 0x6 0x0 0x10 0x2 0x0 0x0 0x1
2024-01-04 11:28:47,932 [DEBUG] Processing: 0x0 0x7 0x0 0x0 0x0 0x6 0x0 0x10 0x2 0x0 0x0 0x1
2024-01-04 11:28:47,932 [DEBUG] Factory Response[WriteMultipleRegistersResponse': 16]
2024-01-04 11:28:47,932 [DEBUG] Adding transaction 7
2024-01-04 11:28:47,932 [DEBUG] Getting transaction 7
2024-01-04 11:28:47,932 [DEBUG] Changing transaction state from "PROCESSING REPLY" to "TRANSACTION_COMPLETE"
2024-01-04 11:28:47,932 [INFO] Successfully wrote -7.7 to PLC register 1 for 10.208.8.11:502
2024-01-04 11:28:47,933 [DEBUG] [63161, 10000]
2024-01-04 11:28:47,933 [DEBUG] Current transaction state - TRANSACTION_COMPLETE
2024-01-04 11:28:47,933 [DEBUG] Running transaction 13
2024-01-04 11:28:47,933 [DEBUG] SEND: 0x0 0xd 0x0 0x0 0x0 0x9 0x0 0x10 0x0 0x0 0x0 0x1 0x2 0xf6 0xb9
2024-01-04 11:28:47,933 [DEBUG] New Transaction state "SENDING"
2024-01-04 11:28:47,933 [DEBUG] Changing transaction state from "SENDING" to "WAITING FOR REPLY"
2024-01-04 11:28:47,938 [DEBUG] Changing transaction state from "WAITING FOR REPLY" to "PROCESSING REPLY"
2024-01-04 11:28:47,938 [DEBUG] RECV: 0x0 0xd 0x0 0x0 0x0 0x6 0x0 0x10 0x0 0x0 0x0 0x1
2024-01-04 11:28:47,938 [DEBUG] Processing: 0x0 0xd 0x0 0x0 0x0 0x6 0x0 0x10 0x0 0x0 0x0 0x1
2024-01-04 11:28:47,939 [DEBUG] Factory Response[WriteMultipleRegistersResponse': 16]
2024-01-04 11:28:47,939 [DEBUG] Adding transaction 13
2024-01-04 11:28:47,939 [DEBUG] Getting transaction 13
2024-01-04 11:28:47,939 [DEBUG] Changing transaction state from "PROCESSING REPLY" to "TRANSACTION_COMPLETE"
2024-01-04 11:28:47,939 [INFO] Successfully wrote -237.57685041144978 to PLC register 1 for 10.202.240.12:502
2024-01-04 11:28:47,939 [DEBUG] Current transaction state - TRANSACTION_COMPLETE
2024-01-04 11:28:47,939 [DEBUG] Running transaction 14
2024-01-04 11:28:47,939 [DEBUG] SEND: 0x0 0xe 0x0 0x0 0x0 0x9 0x0 0x10 0x0 0x1 0x0 0x1 0x2 0x27 0x10
2024-01-04 11:28:47,939 [DEBUG] New Transaction state "SENDING"
2024-01-04 11:28:47,939 [DEBUG] Changing transaction state from "SENDING" to "WAITING FOR REPLY"
2024-01-04 11:28:47,944 [DEBUG] Changing transaction state from "WAITING FOR REPLY" to "PROCESSING REPLY"
2024-01-04 11:28:47,944 [DEBUG] RECV: 0x0 0xe 0x0 0x0 0x0 0x6 0x0 0x10 0x0 0x1 0x0 0x1
2024-01-04 11:28:47,944 [DEBUG] Processing: 0x0 0xe 0x0 0x0 0x0 0x6 0x0 0x10 0x0 0x1 0x0 0x1
2024-01-04 11:28:47,944 [DEBUG] Factory Response[WriteMultipleRegistersResponse': 16]
2024-01-04 11:28:47,944 [DEBUG] Adding transaction 14
2024-01-04 11:28:47,944 [DEBUG] Getting transaction 14
2024-01-04 11:28:47,944 [DEBUG] Changing transaction state from "PROCESSING REPLY" to "TRANSACTION_COMPLETE"
2024-01-04 11:28:47,944 [INFO] Successfully wrote 1000.0 to PLC register 2 for 10.202.240.12:502
2024-01-04 11:28:47,945 [INFO] server_inputs: [-237.57685041144978, 1000.0]
2024-01-04 11:28:48,984 [DEBUG] [65459]
2024-01-04 11:28:48,985 [DEBUG] Current transaction state - TRANSACTION_COMPLETE
2024-01-04 11:28:48,985 [DEBUG] Running transaction 8
2024-01-04 11:28:48,985 [DEBUG] SEND: 0x0 0x8 0x0 0x0 0x0 0x9 0x0 0x10 0x0 0x0 0x0 0x1 0x2 0xff 0xb3
2024-01-04 11:28:48,985 [DEBUG] New Transaction state "SENDING"
2024-01-04 11:28:48,985 [DEBUG] Changing transaction state from "SENDING" to "WAITING FOR REPLY"
2024-01-04 11:28:49,519 [DEBUG] Changing transaction state from "WAITING FOR REPLY" to "PROCESSING REPLY"
2024-01-04 11:28:49,519 [DEBUG] RECV: 0x0 0x8 0x0 0x0 0x0 0x6 0x0 0x10 0x2 0x0 0x0 0x1
2024-01-04 11:28:49,519 [DEBUG] Processing: 0x0 0x8 0x0 0x0 0x0 0x6 0x0 0x10 0x2 0x0 0x0 0x1
2024-01-04 11:28:49,519 [DEBUG] Factory Response[WriteMultipleRegistersResponse': 16]
2024-01-04 11:28:49,519 [DEBUG] Adding transaction 8
2024-01-04 11:28:49,519 [DEBUG] Getting transaction 8
2024-01-04 11:28:49,519 [DEBUG] Changing transaction state from "PROCESSING REPLY" to "TRANSACTION_COMPLETE"
2024-01-04 11:28:49,519 [INFO] Successfully wrote -7.7 to PLC register 1 for 10.208.8.11:502
2024-01-04 11:28:49,519 [DEBUG] [63019, 10000]
2024-01-04 11:28:49,519 [DEBUG] Current transaction state - TRANSACTION_COMPLETE
2024-01-04 11:28:49,519 [DEBUG] Running transaction 15
2024-01-04 11:28:49,520 [DEBUG] SEND: 0x0 0xf 0x0 0x0 0x0 0x9 0x0 0x10 0x0 0x0 0x0 0x1 0x2 0xf6 0x2b
2024-01-04 11:28:49,520 [DEBUG] New Transaction state "SENDING"
2024-01-04 11:28:49,520 [DEBUG] Changing transaction state from "SENDING" to "WAITING FOR REPLY"
2024-01-04 11:28:49,525 [DEBUG] Changing transaction state from "WAITING FOR REPLY" to "PROCESSING REPLY"
2024-01-04 11:28:49,525 [DEBUG] RECV: 0x0 0xf 0x0 0x0 0x0 0x6 0x0 0x10 0x0 0x0 0x0 0x1
2024-01-04 11:28:49,525 [DEBUG] Processing: 0x0 0xf 0x0 0x0 0x0 0x6 0x0 0x10 0x0 0x0 0x0 0x1
2024-01-04 11:28:49,525 [DEBUG] Factory Response[WriteMultipleRegistersResponse': 16]
2024-01-04 11:28:49,525 [DEBUG] Adding transaction 15
2024-01-04 11:28:49,525 [DEBUG] Getting transaction 15
2024-01-04 11:28:49,525 [DEBUG] Changing transaction state from "PROCESSING REPLY" to "TRANSACTION_COMPLETE"
2024-01-04 11:28:49,525 [INFO] Successfully wrote -251.79885619793725 to PLC register 1 for 10.202.240.12:502
2024-01-04 11:28:49,525 [DEBUG] Current transaction state - TRANSACTION_COMPLETE
2024-01-04 11:28:49,525 [DEBUG] Running transaction 16
2024-01-04 11:28:49,525 [DEBUG] SEND: 0x0 0x10 0x0 0x0 0x0 0x9 0x0 0x10 0x0 0x1 0x0 0x1 0x2 0x27 0x10
2024-01-04 11:28:49,525 [DEBUG] New Transaction state "SENDING"
2024-01-04 11:28:49,525 [DEBUG] Changing transaction state from "SENDING" to "WAITING FOR REPLY"
2024-01-04 11:28:49,530 [DEBUG] Changing transaction state from "WAITING FOR REPLY" to "PROCESSING REPLY"
2024-01-04 11:28:49,530 [DEBUG] RECV: 0x0 0x10 0x0 0x0 0x0 0x6 0x0 0x10 0x0 0x1 0x0 0x1
2024-01-04 11:28:49,531 [DEBUG] Processing: 0x0 0x10 0x0 0x0 0x0 0x6 0x0 0x10 0x0 0x1 0x0 0x1
2024-01-04 11:28:49,531 [DEBUG] Factory Response[WriteMultipleRegistersResponse': 16]
2024-01-04 11:28:49,531 [DEBUG] Adding transaction 16
2024-01-04 11:28:49,531 [DEBUG] Getting transaction 16
2024-01-04 11:28:49,531 [DEBUG] Changing transaction state from "PROCESSING REPLY" to "TRANSACTION_COMPLETE"
2024-01-04 11:28:49,531 [INFO] Successfully wrote 1000.0 to PLC register 2 for 10.202.240.12:502
2024-01-04 11:28:49,531 [INFO] server_inputs: [-251.79885619793725, 1000.0]
2024-01-04 11:28:50,562 [DEBUG] [65459]
2024-01-04 11:28:50,563 [DEBUG] Current transaction state - TRANSACTION_COMPLETE
2024-01-04 11:28:50,563 [DEBUG] Running transaction 9
2024-01-04 11:28:50,563 [DEBUG] SEND: 0x0 0x9 0x0 0x0 0x0 0x9 0x0 0x10 0x0 0x0 0x0 0x1 0x2 0xff 0xb3
2024-01-04 11:28:50,563 [DEBUG] New Transaction state "SENDING"
2024-01-04 11:28:50,563 [DEBUG] Changing transaction state from "SENDING" to "WAITING FOR REPLY"
2024-01-04 11:28:50,861 [DEBUG] Changing transaction state from "WAITING FOR REPLY" to "PROCESSING REPLY"
2024-01-04 11:28:50,861 [DEBUG] RECV: 0x0 0x9 0x0 0x0 0x0 0x6 0x0 0x10 0x2 0x0 0x0 0x1
2024-01-04 11:28:50,861 [DEBUG] Processing: 0x0 0x9 0x0 0x0 0x0 0x6 0x0 0x10 0x2 0x0 0x0 0x1
2024-01-04 11:28:50,861 [DEBUG] Factory Response[WriteMultipleRegistersResponse': 16]
2024-01-04 11:28:50,861 [DEBUG] Adding transaction 9
2024-01-04 11:28:50,861 [DEBUG] Getting transaction 9
2024-01-04 11:28:50,861 [DEBUG] Changing transaction state from "PROCESSING REPLY" to "TRANSACTION_COMPLETE"
2024-01-04 11:28:50,861 [INFO] Successfully wrote -7.7 to PLC register 1 for 10.208.8.11:502
2024-01-04 11:28:50,861 [DEBUG] [62911, 10000]
2024-01-04 11:28:50,862 [DEBUG] Current transaction state - TRANSACTION_COMPLETE
2024-01-04 11:28:50,862 [DEBUG] Running transaction 17
2024-01-04 11:28:50,862 [DEBUG] SEND: 0x0 0x11 0x0 0x0 0x0 0x9 0x0 0x10 0x0 0x0 0x0 0x1 0x2 0xf5 0xbf
2024-01-04 11:28:50,862 [DEBUG] New Transaction state "SENDING"
2024-01-04 11:28:50,862 [DEBUG] Changing transaction state from "SENDING" to "WAITING FOR REPLY"
2024-01-04 11:28:50,868 [DEBUG] Changing transaction state from "WAITING FOR REPLY" to "PROCESSING REPLY"
2024-01-04 11:28:50,869 [DEBUG] RECV: 0x0 0x11 0x0 0x0 0x0 0x6 0x0 0x10 0x0 0x0 0x0 0x1
2024-01-04 11:28:50,869 [DEBUG] Processing: 0x0 0x11 0x0 0x0 0x0 0x6 0x0 0x10 0x0 0x0 0x0 0x1
2024-01-04 11:28:50,869 [DEBUG] Factory Response[WriteMultipleRegistersResponse': 16]
2024-01-04 11:28:50,869 [DEBUG] Adding transaction 17
2024-01-04 11:28:50,869 [DEBUG] Getting transaction 17
2024-01-04 11:28:50,869 [DEBUG] Changing transaction state from "PROCESSING REPLY" to "TRANSACTION_COMPLETE"
2024-01-04 11:28:50,869 [INFO] Successfully wrote -262.52930234603093 to PLC register 1 for 10.202.240.12:502
2024-01-04 11:28:50,869 [DEBUG] Current transaction state - TRANSACTION_COMPLETE
2024-01-04 11:28:50,869 [DEBUG] Running transaction 18
2024-01-04 11:28:50,869 [DEBUG] SEND: 0x0 0x12 0x0 0x0 0x0 0x9 0x0 0x10 0x0 0x1 0x0 0x1 0x2 0x27 0x10
2024-01-04 11:28:50,869 [DEBUG] New Transaction state "SENDING"
2024-01-04 11:28:50,869 [DEBUG] Changing transaction state from "SENDING" to "WAITING FOR REPLY"
2024-01-04 11:28:50,874 [DEBUG] Changing transaction state from "WAITING FOR REPLY" to "PROCESSING REPLY"
2024-01-04 11:28:50,874 [DEBUG] RECV: 0x0 0x12 0x0 0x0 0x0 0x6 0x0 0x10 0x0 0x1 0x0 0x1
2024-01-04 11:28:50,874 [DEBUG] Processing: 0x0 0x12 0x0 0x0 0x0 0x6 0x0 0x10 0x0 0x1 0x0 0x1
2024-01-04 11:28:50,874 [DEBUG] Factory Response[WriteMultipleRegistersResponse': 16]
2024-01-04 11:28:50,874 [DEBUG] Adding transaction 18
2024-01-04 11:28:50,874 [DEBUG] Getting transaction 18
2024-01-04 11:28:50,874 [DEBUG] Changing transaction state from "PROCESSING REPLY" to "TRANSACTION_COMPLETE"
2024-01-04 11:28:50,874 [INFO] Successfully wrote 1000.0 to PLC register 2 for 10.202.240.12:502
2024-01-04 11:28:50,874 [INFO] server_inputs: [-262.52930234603093, 1000.0]
2024-01-04 11:28:51,916 [DEBUG] [65459]
2024-01-04 11:28:51,916 [DEBUG] Current transaction state - TRANSACTION_COMPLETE
2024-01-04 11:28:51,916 [DEBUG] Running transaction 10
2024-01-04 11:28:51,916 [DEBUG] SEND: 0x0 0xa 0x0 0x0 0x0 0x9 0x0 0x10 0x0 0x0 0x0 0x1 0x2 0xff 0xb3
2024-01-04 11:28:51,917 [DEBUG] New Transaction state "SENDING"
2024-01-04 11:28:51,917 [DEBUG] Changing transaction state from "SENDING" to "WAITING FOR REPLY"
2024-01-04 11:28:52,136 [DEBUG] Changing transaction state from "WAITING FOR REPLY" to "PROCESSING REPLY"
2024-01-04 11:28:52,136 [DEBUG] RECV: 0x0 0xa 0x0 0x0 0x0 0x6 0x0 0x10 0x2 0x0 0x0 0x1
2024-01-04 11:28:52,136 [DEBUG] Processing: 0x0 0xa 0x0 0x0 0x0 0x6 0x0 0x10 0x2 0x0 0x0 0x1
2024-01-04 11:28:52,136 [DEBUG] Factory Response[WriteMultipleRegistersResponse': 16]
2024-01-04 11:28:52,136 [DEBUG] Adding transaction 10
2024-01-04 11:28:52,137 [DEBUG] Getting transaction 10
2024-01-04 11:28:52,137 [DEBUG] Changing transaction state from "PROCESSING REPLY" to "TRANSACTION_COMPLETE"
2024-01-04 11:28:52,137 [INFO] Successfully wrote -7.7 to PLC register 1 for 10.208.8.11:502
2024-01-04 11:28:52,137 [DEBUG] [62836, 10000]
2024-01-04 11:28:52,137 [DEBUG] Current transaction state - TRANSACTION_COMPLETE
2024-01-04 11:28:52,137 [DEBUG] Running transaction 19
2024-01-04 11:28:52,137 [DEBUG] SEND: 0x0 0x13 0x0 0x0 0x0 0x9 0x0 0x10 0x0 0x0 0x0 0x1 0x2 0xf5 0x74
2024-01-04 11:28:52,137 [DEBUG] New Transaction state "SENDING"
2024-01-04 11:28:52,137 [DEBUG] Changing transaction state from "SENDING" to "WAITING FOR REPLY"
2024-01-04 11:28:52,144 [DEBUG] Changing transaction state from "WAITING FOR REPLY" to "PROCESSING REPLY"
2024-01-04 11:28:52,145 [DEBUG] RECV: 0x0 0x13 0x0 0x0 0x0 0x6 0x0 0x10 0x0 0x0 0x0 0x1
2024-01-04 11:28:52,145 [DEBUG] Processing: 0x0 0x13 0x0 0x0 0x0 0x6 0x0 0x10 0x0 0x0 0x0 0x1
2024-01-04 11:28:52,145 [DEBUG] Factory Response[WriteMultipleRegistersResponse': 16]
2024-01-04 11:28:52,145 [DEBUG] Adding transaction 19
2024-01-04 11:28:52,145 [DEBUG] Getting transaction 19
2024-01-04 11:28:52,145 [DEBUG] Changing transaction state from "PROCESSING REPLY" to "TRANSACTION_COMPLETE"
2024-01-04 11:28:52,145 [INFO] Successfully wrote -270.0453519461691 to PLC register 1 for 10.202.240.12:502
2024-01-04 11:28:52,145 [DEBUG] Current transaction state - TRANSACTION_COMPLETE
2024-01-04 11:28:52,145 [DEBUG] Running transaction 20
2024-01-04 11:28:52,145 [DEBUG] SEND: 0x0 0x14 0x0 0x0 0x0 0x9 0x0 0x10 0x0 0x1 0x0 0x1 0x2 0x27 0x10
2024-01-04 11:28:52,145 [DEBUG] New Transaction state "SENDING"
2024-01-04 11:28:52,145 [DEBUG] Changing transaction state from "SENDING" to "WAITING FOR REPLY"
2024-01-04 11:28:52,150 [DEBUG] Changing transaction state from "WAITING FOR REPLY" to "PROCESSING REPLY"
2024-01-04 11:28:52,150 [DEBUG] RECV: 0x0 0x14 0x0 0x0 0x0 0x6 0x0 0x10 0x0 0x1 0x0 0x1
2024-01-04 11:28:52,150 [DEBUG] Processing: 0x0 0x14 0x0 0x0 0x0 0x6 0x0 0x10 0x0 0x1 0x0 0x1
2024-01-04 11:28:52,150 [DEBUG] Factory Response[WriteMultipleRegistersResponse': 16]
2024-01-04 11:28:52,150 [DEBUG] Adding transaction 20
2024-01-04 11:28:52,150 [DEBUG] Getting transaction 20
2024-01-04 11:28:52,150 [DEBUG] Changing transaction state from "PROCESSING REPLY" to "TRANSACTION_COMPLETE"
2024-01-04 11:28:52,150 [INFO] Successfully wrote 1000.0 to PLC register 2 for 10.202.240.12:502
2024-01-04 11:28:52,150 [INFO] server_inputs: [-270.0453519461691, 1000.0]
2024-01-04 11:28:53,180 [DEBUG] [65459]
2024-01-04 11:28:53,180 [DEBUG] Current transaction state - TRANSACTION_COMPLETE
2024-01-04 11:28:53,181 [DEBUG] Running transaction 11
2024-01-04 11:28:53,181 [DEBUG] SEND: 0x0 0xb 0x0 0x0 0x0 0x9 0x0 0x10 0x0 0x0 0x0 0x1 0x2 0xff 0xb3
2024-01-04 11:28:53,181 [DEBUG] New Transaction state "SENDING"
2024-01-04 11:28:53,181 [DEBUG] Changing transaction state from "SENDING" to "WAITING FOR REPLY"
2024-01-04 11:28:53,294 [DEBUG] Changing transaction state from "WAITING FOR REPLY" to "PROCESSING REPLY"
2024-01-04 11:28:53,294 [DEBUG] RECV: 0x0 0xb 0x0 0x0 0x0 0x6 0x0 0x10 0x2 0x0 0x0 0x1
2024-01-04 11:28:53,294 [DEBUG] Processing: 0x0 0xb 0x0 0x0 0x0 0x6 0x0 0x10 0x2 0x0 0x0 0x1
2024-01-04 11:28:53,294 [DEBUG] Factory Response[WriteMultipleRegistersResponse': 16]
2024-01-04 11:28:53,294 [DEBUG] Adding transaction 11
2024-01-04 11:28:53,294 [DEBUG] Getting transaction 11
2024-01-04 11:28:53,294 [DEBUG] Changing transaction state from "PROCESSING REPLY" to "TRANSACTION_COMPLETE"
2024-01-04 11:28:53,294 [INFO] Successfully wrote -7.7 to PLC register 1 for 10.208.8.11:502
2024-01-04 11:28:53,294 [DEBUG] [62779, 10000]
2024-01-04 11:28:53,294 [DEBUG] Current transaction state - TRANSACTION_COMPLETE
2024-01-04 11:28:53,294 [DEBUG] Running transaction 21
2024-01-04 11:28:53,294 [DEBUG] SEND: 0x0 0x15 0x0 0x0 0x0 0x9 0x0 0x10 0x0 0x0 0x0 0x1 0x2 0xf5 0x3b
2024-01-04 11:28:53,295 [DEBUG] New Transaction state "SENDING"
2024-01-04 11:28:53,295 [DEBUG] Changing transaction state from "SENDING" to "WAITING FOR REPLY"
2024-01-04 11:28:53,302 [DEBUG] Changing transaction state from "WAITING FOR REPLY" to "PROCESSING REPLY"
2024-01-04 11:28:53,302 [DEBUG] RECV: 0x0 0x15 0x0 0x0 0x0 0x6 0x0 0x10 0x0 0x0 0x0 0x1
2024-01-04 11:28:53,302 [DEBUG] Processing: 0x0 0x15 0x0 0x0 0x0 0x6 0x0 0x10 0x0 0x0 0x0 0x1
2024-01-04 11:28:53,302 [DEBUG] Factory Response[WriteMultipleRegistersResponse': 16]
2024-01-04 11:28:53,302 [DEBUG] Adding transaction 21
2024-01-04 11:28:53,302 [DEBUG] Getting transaction 21
2024-01-04 11:28:53,302 [DEBUG] Changing transaction state from "PROCESSING REPLY" to "TRANSACTION_COMPLETE"
2024-01-04 11:28:53,302 [INFO] Successfully wrote -275.7810436320886 to PLC register 1 for 10.202.240.12:502
2024-01-04 11:28:53,302 [DEBUG] Current transaction state - TRANSACTION_COMPLETE
2024-01-04 11:28:53,302 [DEBUG] Running transaction 22
2024-01-04 11:28:53,303 [DEBUG] SEND: 0x0 0x16 0x0 0x0 0x0 0x9 0x0 0x10 0x0 0x1 0x0 0x1 0x2 0x27 0x10
2024-01-04 11:28:53,303 [DEBUG] New Transaction state "SENDING"
2024-01-04 11:28:53,303 [DEBUG] Changing transaction state from "SENDING" to "WAITING FOR REPLY"
2024-01-04 11:28:53,307 [DEBUG] Changing transaction state from "WAITING FOR REPLY" to "PROCESSING REPLY"
2024-01-04 11:28:53,307 [DEBUG] RECV: 0x0 0x16 0x0 0x0 0x0 0x6 0x0 0x10 0x0 0x1 0x0 0x1
2024-01-04 11:28:53,307 [DEBUG] Processing: 0x0 0x16 0x0 0x0 0x0 0x6 0x0 0x10 0x0 0x1 0x0 0x1
2024-01-04 11:28:53,307 [DEBUG] Factory Response[WriteMultipleRegistersResponse': 16]
2024-01-04 11:28:53,307 [DEBUG] Adding transaction 22
2024-01-04 11:28:53,307 [DEBUG] Getting transaction 22
2024-01-04 11:28:53,308 [DEBUG] Changing transaction state from "PROCESSING REPLY" to "TRANSACTION_COMPLETE"
2024-01-04 11:28:53,308 [INFO] Successfully wrote 1000.0 to PLC register 2 for 10.202.240.12:502
2024-01-04 11:28:53,308 [INFO] server_inputs: [-275.7810436320886, 1000.0]
2024-01-04 11:29:10,284 [DEBUG] [65459]
2024-01-04 11:29:10,347 [DEBUG] Connection to Modbus server established. Socket ('10.202.240.26', 11628)
2024-01-04 11:29:10,347 [DEBUG] Current transaction state - IDLE
2024-01-04 11:29:10,347 [DEBUG] Running transaction 1
2024-01-04 11:29:10,347 [DEBUG] SEND: 0x0 0x1 0x0 0x0 0x0 0x9 0x0 0x10 0x0 0x0 0x0 0x1 0x2 0xff 0xb3
2024-01-04 11:29:10,347 [DEBUG] New Transaction state "SENDING"
2024-01-04 11:29:10,347 [DEBUG] Changing transaction state from "SENDING" to "WAITING FOR REPLY"
2024-01-04 11:29:10,937 [DEBUG] Changing transaction state from "WAITING FOR REPLY" to "PROCESSING REPLY"
2024-01-04 11:29:10,937 [DEBUG] RECV: 0x0 0x1 0x0 0x0 0x0 0x6 0x0 0x10 0x2 0x0 0x0 0x1
2024-01-04 11:29:10,937 [DEBUG] Processing: 0x0 0x1 0x0 0x0 0x0 0x6 0x0 0x10 0x2 0x0 0x0 0x1
2024-01-04 11:29:10,937 [DEBUG] Factory Response[WriteMultipleRegistersResponse': 16]
2024-01-04 11:29:10,938 [DEBUG] Adding transaction 1
2024-01-04 11:29:10,938 [DEBUG] Getting transaction 1
2024-01-04 11:29:10,938 [DEBUG] Changing transaction state from "PROCESSING REPLY" to "TRANSACTION_COMPLETE"
2024-01-04 11:29:10,938 [INFO] Successfully wrote -7.7 to PLC register 1 for 10.208.8.11:502
2024-01-04 11:29:10,938 [DEBUG] [6000, 10000]
2024-01-04 11:29:10,965 [DEBUG] Connection to Modbus server established. Socket ('10.202.240.26', 11629)
2024-01-04 11:29:10,965 [DEBUG] Current transaction state - IDLE
2024-01-04 11:29:10,965 [DEBUG] Running transaction 1
2024-01-04 11:29:10,965 [DEBUG] SEND: 0x0 0x1 0x0 0x0 0x0 0x9 0x0 0x10 0x0 0x0 0x0 0x1 0x2 0x17 0x70
2024-01-04 11:29:10,965 [DEBUG] New Transaction state "SENDING"
2024-01-04 11:29:10,965 [DEBUG] Changing transaction state from "SENDING" to "WAITING FOR REPLY"
2024-01-04 11:29:10,973 [DEBUG] Changing transaction state from "WAITING FOR REPLY" to "PROCESSING REPLY"
2024-01-04 11:29:10,973 [DEBUG] RECV: 0x0 0x1 0x0 0x0 0x0 0x6 0x0 0x10 0x0 0x0 0x0 0x1
2024-01-04 11:29:10,973 [DEBUG] Processing: 0x0 0x1 0x0 0x0 0x0 0x6 0x0 0x10 0x0 0x0 0x0 0x1
2024-01-04 11:29:10,973 [DEBUG] Factory Response[WriteMultipleRegistersResponse': 16]
2024-01-04 11:29:10,973 [DEBUG] Adding transaction 1
2024-01-04 11:29:10,973 [DEBUG] Getting transaction 1
2024-01-04 11:29:10,973 [DEBUG] Changing transaction state from "PROCESSING REPLY" to "TRANSACTION_COMPLETE"
2024-01-04 11:29:10,973 [INFO] Successfully wrote 600.0 to PLC register 1 for 10.202.240.12:502
2024-01-04 11:29:10,973 [DEBUG] Current transaction state - TRANSACTION_COMPLETE
2024-01-04 11:29:10,973 [DEBUG] Running transaction 2
2024-01-04 11:29:10,973 [DEBUG] SEND: 0x0 0x2 0x0 0x0 0x0 0x9 0x0 0x10 0x0 0x1 0x0 0x1 0x2 0x27 0x10
2024-01-04 11:29:10,973 [DEBUG] New Transaction state "SENDING"
2024-01-04 11:29:10,974 [DEBUG] Changing transaction state from "SENDING" to "WAITING FOR REPLY"
2024-01-04 11:29:10,979 [DEBUG] Changing transaction state from "WAITING FOR REPLY" to "PROCESSING REPLY"
2024-01-04 11:29:10,979 [DEBUG] RECV: 0x0 0x2 0x0 0x0 0x0 0x6 0x0 0x10 0x0 0x1 0x0 0x1
2024-01-04 11:29:10,979 [DEBUG] Processing: 0x0 0x2 0x0 0x0 0x0 0x6 0x0 0x10 0x0 0x1 0x0 0x1
2024-01-04 11:29:10,979 [DEBUG] Factory Response[WriteMultipleRegistersResponse': 16]
2024-01-04 11:29:10,979 [DEBUG] Adding transaction 2
2024-01-04 11:29:10,979 [DEBUG] Getting transaction 2
2024-01-04 11:29:10,979 [DEBUG] Changing transaction state from "PROCESSING REPLY" to "TRANSACTION_COMPLETE"
2024-01-04 11:29:10,980 [INFO] Successfully wrote 1000.0 to PLC register 2 for 10.202.240.12:502
2024-01-04 11:29:10,980 [INFO] server_inputs: [600.0, 1000.0]
2024-01-04 11:29:12,036 [DEBUG] [65459]
2024-01-04 11:29:12,036 [DEBUG] Current transaction state - TRANSACTION_COMPLETE
2024-01-04 11:29:12,036 [DEBUG] Running transaction 2
2024-01-04 11:29:12,036 [DEBUG] SEND: 0x0 0x2 0x0 0x0 0x0 0x9 0x0 0x10 0x0 0x0 0x0 0x1 0x2 0xff 0xb3
2024-01-04 11:29:12,036 [DEBUG] New Transaction state "SENDING"
2024-01-04 11:29:12,036 [DEBUG] Changing transaction state from "SENDING" to "WAITING FOR REPLY"
2024-01-04 11:29:12,286 [DEBUG] Changing transaction state from "WAITING FOR REPLY" to "PROCESSING REPLY"
2024-01-04 11:29:12,286 [DEBUG] RECV: 0x0 0x2 0x0 0x0 0x0 0x6 0x0 0x10 0x2 0x0 0x0 0x1
2024-01-04 11:29:12,286 [DEBUG] Processing: 0x0 0x2 0x0 0x0 0x0 0x6 0x0 0x10 0x2 0x0 0x0 0x1
2024-01-04 11:29:12,286 [DEBUG] Factory Response[WriteMultipleRegistersResponse': 16]
2024-01-04 11:29:12,286 [DEBUG] Adding transaction 2
2024-01-04 11:29:12,286 [DEBUG] Getting transaction 2
2024-01-04 11:29:12,286 [DEBUG] Changing transaction state from "PROCESSING REPLY" to "TRANSACTION_COMPLETE"
2024-01-04 11:29:12,286 [INFO] Successfully wrote -7.7 to PLC register 1 for 10.208.8.11:502
2024-01-04 11:29:12,286 [DEBUG] [6000, 10000]
2024-01-04 11:29:12,286 [DEBUG] Current transaction state - TRANSACTION_COMPLETE
2024-01-04 11:29:12,286 [DEBUG] Running transaction 3
2024-01-04 11:29:12,286 [DEBUG] SEND: 0x0 0x3 0x0 0x0 0x0 0x9 0x0 0x10 0x0 0x0 0x0 0x1 0x2 0x17 0x70
2024-01-04 11:29:12,286 [DEBUG] New Transaction state "SENDING"
2024-01-04 11:29:12,286 [DEBUG] Changing transaction state from "SENDING" to "WAITING FOR REPLY"
2024-01-04 11:29:12,291 [DEBUG] Changing transaction state from "WAITING FOR REPLY" to "PROCESSING REPLY"
2024-01-04 11:29:12,292 [DEBUG] RECV: 0x0 0x3 0x0 0x0 0x0 0x6 0x0 0x10 0x0 0x0 0x0 0x1
2024-01-04 11:29:12,292 [DEBUG] Processing: 0x0 0x3 0x0 0x0 0x0 0x6 0x0 0x10 0x0 0x0 0x0 0x1
2024-01-04 11:29:12,292 [DEBUG] Factory Response[WriteMultipleRegistersResponse': 16]
2024-01-04 11:29:12,292 [DEBUG] Adding transaction 3
2024-01-04 11:29:12,292 [DEBUG] Getting transaction 3
2024-01-04 11:29:12,292 [DEBUG] Changing transaction state from "PROCESSING REPLY" to "TRANSACTION_COMPLETE"
2024-01-04 11:29:12,292 [INFO] Successfully wrote 600.0 to PLC register 1 for 10.202.240.12:502
2024-01-04 11:29:12,292 [DEBUG] Current transaction state - TRANSACTION_COMPLETE
2024-01-04 11:29:12,292 [DEBUG] Running transaction 4
2024-01-04 11:29:12,292 [DEBUG] SEND: 0x0 0x4 0x0 0x0 0x0 0x9 0x0 0x10 0x0 0x1 0x0 0x1 0x2 0x27 0x10
2024-01-04 11:29:12,292 [DEBUG] New Transaction state "SENDING"
2024-01-04 11:29:12,292 [DEBUG] Changing transaction state from "SENDING" to "WAITING FOR REPLY"
2024-01-04 11:29:12,298 [DEBUG] Changing transaction state from "WAITING FOR REPLY" to "PROCESSING REPLY"
2024-01-04 11:29:12,298 [DEBUG] RECV: 0x0 0x4 0x0 0x0 0x0 0x6 0x0 0x10 0x0 0x1 0x0 0x1
2024-01-04 11:29:12,298 [DEBUG] Processing: 0x0 0x4 0x0 0x0 0x0 0x6 0x0 0x10 0x0 0x1 0x0 0x1
2024-01-04 11:29:12,298 [DEBUG] Factory Response[WriteMultipleRegistersResponse': 16]
2024-01-04 11:29:12,298 [DEBUG] Adding transaction 4
2024-01-04 11:29:12,298 [DEBUG] Getting transaction 4
2024-01-04 11:29:12,298 [DEBUG] Changing transaction state from "PROCESSING REPLY" to "TRANSACTION_COMPLETE"
2024-01-04 11:29:12,298 [INFO] Successfully wrote 1000.0 to PLC register 2 for 10.202.240.12:502
2024-01-04 11:29:12,298 [INFO] server_inputs: [600.0, 1000.0]
2024-01-04 11:29:13,338 [DEBUG] [65459]
2024-01-04 11:29:13,338 [DEBUG] Current transaction state - TRANSACTION_COMPLETE
2024-01-04 11:29:13,338 [DEBUG] Running transaction 3
2024-01-04 11:29:13,338 [DEBUG] SEND: 0x0 0x3 0x0 0x0 0x0 0x9 0x0 0x10 0x0 0x0 0x0 0x1 0x2 0xff 0xb3
2024-01-04 11:29:13,338 [DEBUG] New Transaction state "SENDING"
2024-01-04 11:29:13,338 [DEBUG] Changing transaction state from "SENDING" to "WAITING FOR REPLY"
2024-01-04 11:29:13,664 [DEBUG] Changing transaction state from "WAITING FOR REPLY" to "PROCESSING REPLY"
2024-01-04 11:29:13,664 [DEBUG] RECV: 0x0 0x3 0x0 0x0 0x0 0x6 0x0 0x10 0x2 0x0 0x0 0x1
2024-01-04 11:29:13,665 [DEBUG] Processing: 0x0 0x3 0x0 0x0 0x0 0x6 0x0 0x10 0x2 0x0 0x0 0x1
2024-01-04 11:29:13,665 [DEBUG] Factory Response[WriteMultipleRegistersResponse': 16]
2024-01-04 11:29:13,665 [DEBUG] Adding transaction 3
2024-01-04 11:29:13,665 [DEBUG] Getting transaction 3
2024-01-04 11:29:13,665 [DEBUG] Changing transaction state from "PROCESSING REPLY" to "TRANSACTION_COMPLETE"
2024-01-04 11:29:13,665 [INFO] Successfully wrote -7.7 to PLC register 1 for 10.208.8.11:502
2024-01-04 11:29:13,665 [DEBUG] [6000, 10000]
2024-01-04 11:29:13,665 [DEBUG] Current transaction state - TRANSACTION_COMPLETE
2024-01-04 11:29:13,665 [DEBUG] Running transaction 5
2024-01-04 11:29:13,665 [DEBUG] SEND: 0x0 0x5 0x0 0x0 0x0 0x9 0x0 0x10 0x0 0x0 0x0 0x1 0x2 0x17 0x70
2024-01-04 11:29:13,665 [DEBUG] New Transaction state "SENDING"
2024-01-04 11:29:13,665 [DEBUG] Changing transaction state from "SENDING" to "WAITING FOR REPLY"
2024-01-04 11:29:13,669 [DEBUG] Changing transaction state from "WAITING FOR REPLY" to "PROCESSING REPLY"
2024-01-04 11:29:13,669 [DEBUG] RECV: 0x0 0x5 0x0 0x0 0x0 0x6 0x0 0x10 0x0 0x0 0x0 0x1
2024-01-04 11:29:13,669 [DEBUG] Processing: 0x0 0x5 0x0 0x0 0x0 0x6 0x0 0x10 0x0 0x0 0x0 0x1
2024-01-04 11:29:13,669 [DEBUG] Factory Response[WriteMultipleRegistersResponse': 16]
2024-01-04 11:29:13,669 [DEBUG] Adding transaction 5
2024-01-04 11:29:13,669 [DEBUG] Getting transaction 5
2024-01-04 11:29:13,669 [DEBUG] Changing transaction state from "PROCESSING REPLY" to "TRANSACTION_COMPLETE"
2024-01-04 11:29:13,669 [INFO] Successfully wrote 600.0 to PLC register 1 for 10.202.240.12:502
2024-01-04 11:29:13,669 [DEBUG] Current transaction state - TRANSACTION_COMPLETE
2024-01-04 11:29:13,669 [DEBUG] Running transaction 6
2024-01-04 11:29:13,669 [DEBUG] SEND: 0x0 0x6 0x0 0x0 0x0 0x9 0x0 0x10 0x0 0x1 0x0 0x1 0x2 0x27 0x10
2024-01-04 11:29:13,669 [DEBUG] New Transaction state "SENDING"
2024-01-04 11:29:13,669 [DEBUG] Changing transaction state from "SENDING" to "WAITING FOR REPLY"
2024-01-04 11:29:13,674 [DEBUG] Changing transaction state from "WAITING FOR REPLY" to "PROCESSING REPLY"
2024-01-04 11:29:13,674 [DEBUG] RECV: 0x0 0x6 0x0 0x0 0x0 0x6 0x0 0x10 0x0 0x1 0x0 0x1
2024-01-04 11:29:13,674 [DEBUG] Processing: 0x0 0x6 0x0 0x0 0x0 0x6 0x0 0x10 0x0 0x1 0x0 0x1
2024-01-04 11:29:13,674 [DEBUG] Factory Response[WriteMultipleRegistersResponse': 16]
2024-01-04 11:29:13,674 [DEBUG] Adding transaction 6
2024-01-04 11:29:13,674 [DEBUG] Getting transaction 6
2024-01-04 11:29:13,674 [DEBUG] Changing transaction state from "PROCESSING REPLY" to "TRANSACTION_COMPLETE"
2024-01-04 11:29:13,674 [INFO] Successfully wrote 1000.0 to PLC register 2 for 10.202.240.12:502
2024-01-04 11:29:13,675 [INFO] server_inputs: [600.0, 1000.0]
2024-01-04 11:29:14,717 [DEBUG] [65459]
2024-01-04 11:29:14,718 [DEBUG] Current transaction state - TRANSACTION_COMPLETE
2024-01-04 11:29:14,718 [DEBUG] Running transaction 4
2024-01-04 11:29:14,718 [DEBUG] SEND: 0x0 0x4 0x0 0x0 0x0 0x9 0x0 0x10 0x0 0x0 0x0 0x1 0x2 0xff 0xb3
2024-01-04 11:29:14,718 [DEBUG] New Transaction state "SENDING"
2024-01-04 11:29:14,718 [DEBUG] Changing transaction state from "SENDING" to "WAITING FOR REPLY"
2024-01-04 11:29:15,067 [DEBUG] Changing transaction state from "WAITING FOR REPLY" to "PROCESSING REPLY"
2024-01-04 11:29:15,068 [DEBUG] RECV: 0x0 0x4 0x0 0x0 0x0 0x6 0x0 0x10 0x2 0x0 0x0 0x1
2024-01-04 11:29:15,068 [DEBUG] Processing: 0x0 0x4 0x0 0x0 0x0 0x6 0x0 0x10 0x2 0x0 0x0 0x1
2024-01-04 11:29:15,068 [DEBUG] Factory Response[WriteMultipleRegistersResponse': 16]
2024-01-04 11:29:15,068 [DEBUG] Adding transaction 4
2024-01-04 11:29:15,068 [DEBUG] Getting transaction 4
2024-01-04 11:29:15,068 [DEBUG] Changing transaction state from "PROCESSING REPLY" to "TRANSACTION_COMPLETE"
2024-01-04 11:29:15,068 [INFO] Successfully wrote -7.7 to PLC register 1 for 10.208.8.11:502
2024-01-04 11:29:15,068 [DEBUG] [6000, 10000]
2024-01-04 11:29:15,068 [DEBUG] Current transaction state - TRANSACTION_COMPLETE
2024-01-04 11:29:15,068 [DEBUG] Running transaction 7
2024-01-04 11:29:15,068 [DEBUG] SEND: 0x0 0x7 0x0 0x0 0x0 0x9 0x0 0x10 0x0 0x0 0x0 0x1 0x2 0x17 0x70
2024-01-04 11:29:15,068 [DEBUG] New Transaction state "SENDING"
2024-01-04 11:29:15,068 [DEBUG] Changing transaction state from "SENDING" to "WAITING FOR REPLY"
2024-01-04 11:29:15,075 [DEBUG] Changing transaction state from "WAITING FOR REPLY" to "PROCESSING REPLY"
2024-01-04 11:29:15,075 [DEBUG] RECV: 0x0 0x7 0x0 0x0 0x0 0x6 0x0 0x10 0x0 0x0 0x0 0x1
2024-01-04 11:29:15,075 [DEBUG] Processing: 0x0 0x7 0x0 0x0 0x0 0x6 0x0 0x10 0x0 0x0 0x0 0x1
2024-01-04 11:29:15,075 [DEBUG] Factory Response[WriteMultipleRegistersResponse': 16]
2024-01-04 11:29:15,075 [DEBUG] Adding transaction 7
2024-01-04 11:29:15,075 [DEBUG] Getting transaction 7
2024-01-04 11:29:15,075 [DEBUG] Changing transaction state from "PROCESSING REPLY" to "TRANSACTION_COMPLETE"
2024-01-04 11:29:15,075 [INFO] Successfully wrote 600.0 to PLC register 1 for 10.202.240.12:502
2024-01-04 11:29:15,075 [DEBUG] Current transaction state - TRANSACTION_COMPLETE
2024-01-04 11:29:15,075 [DEBUG] Running transaction 8
2024-01-04 11:29:15,075 [DEBUG] SEND: 0x0 0x8 0x0 0x0 0x0 0x9 0x0 0x10 0x0 0x1 0x0 0x1 0x2 0x27 0x10
2024-01-04 11:29:15,075 [DEBUG] New Transaction state "SENDING"
2024-01-04 11:29:15,076 [DEBUG] Changing transaction state from "SENDING" to "WAITING FOR REPLY"
2024-01-04 11:29:15,081 [DEBUG] Changing transaction state from "WAITING FOR REPLY" to "PROCESSING REPLY"
2024-01-04 11:29:15,081 [DEBUG] RECV: 0x0 0x8 0x0 0x0 0x0 0x6 0x0 0x10 0x0 0x1 0x0 0x1
2024-01-04 11:29:15,081 [DEBUG] Processing: 0x0 0x8 0x0 0x0 0x0 0x6 0x0 0x10 0x0 0x1 0x0 0x1
2024-01-04 11:29:15,081 [DEBUG] Factory Response[WriteMultipleRegistersResponse': 16]
2024-01-04 11:29:15,081 [DEBUG] Adding transaction 8
2024-01-04 11:29:15,081 [DEBUG] Getting transaction 8
2024-01-04 11:29:15,081 [DEBUG] Changing transaction state from "PROCESSING REPLY" to "TRANSACTION_COMPLETE"
2024-01-04 11:29:15,081 [INFO] Successfully wrote 1000.0 to PLC register 2 for 10.202.240.12:502
2024-01-04 11:29:15,081 [INFO] server_inputs: [600.0, 1000.0]
2024-01-04 11:29:16,124 [DEBUG] [65459]
2024-01-04 11:29:16,124 [DEBUG] Current transaction state - TRANSACTION_COMPLETE
2024-01-04 11:29:16,124 [DEBUG] Running transaction 5
2024-01-04 11:29:16,124 [DEBUG] SEND: 0x0 0x5 0x0 0x0 0x0 0x9 0x0 0x10 0x0 0x0 0x0 0x1 0x2 0xff 0xb3
2024-01-04 11:29:16,124 [DEBUG] New Transaction state "SENDING"
2024-01-04 11:29:16,124 [DEBUG] Changing transaction state from "SENDING" to "WAITING FOR REPLY"
2024-01-04 11:29:16,656 [DEBUG] Changing transaction state from "WAITING FOR REPLY" to "PROCESSING REPLY"
2024-01-04 11:29:16,656 [DEBUG] RECV: 0x0 0x5 0x0 0x0 0x0 0x6 0x0 0x10 0x2 0x0 0x0 0x1
2024-01-04 11:29:16,656 [DEBUG] Processing: 0x0 0x5 0x0 0x0 0x0 0x6 0x0 0x10 0x2 0x0 0x0 0x1
2024-01-04 11:29:16,656 [DEBUG] Factory Response[WriteMultipleRegistersResponse': 16]
2024-01-04 11:29:16,656 [DEBUG] Adding transaction 5
2024-01-04 11:29:16,656 [DEBUG] Getting transaction 5
2024-01-04 11:29:16,656 [DEBUG] Changing transaction state from "PROCESSING REPLY" to "TRANSACTION_COMPLETE"
2024-01-04 11:29:16,656 [INFO] Successfully wrote -7.7 to PLC register 1 for 10.208.8.11:502
2024-01-04 11:29:16,656 [DEBUG] [6000, 10000]
2024-01-04 11:29:16,656 [DEBUG] Current transaction state - TRANSACTION_COMPLETE
2024-01-04 11:29:16,656 [DEBUG] Running transaction 9
2024-01-04 11:29:16,656 [DEBUG] SEND: 0x0 0x9 0x0 0x0 0x0 0x9 0x0 0x10 0x0 0x0 0x0 0x1 0x2 0x17 0x70
2024-01-04 11:29:16,656 [DEBUG] New Transaction state "SENDING"
2024-01-04 11:29:16,657 [DEBUG] Changing transaction state from "SENDING" to "WAITING FOR REPLY"
2024-01-04 11:29:16,661 [DEBUG] Changing transaction state from "WAITING FOR REPLY" to "PROCESSING REPLY"
2024-01-04 11:29:16,661 [DEBUG] RECV: 0x0 0x9 0x0 0x0 0x0 0x6 0x0 0x10 0x0 0x0 0x0 0x1
2024-01-04 11:29:16,661 [DEBUG] Processing: 0x0 0x9 0x0 0x0 0x0 0x6 0x0 0x10 0x0 0x0 0x0 0x1
2024-01-04 11:29:16,661 [DEBUG] Factory Response[WriteMultipleRegistersResponse': 16]
2024-01-04 11:29:16,661 [DEBUG] Adding transaction 9
2024-01-04 11:29:16,661 [DEBUG] Getting transaction 9
2024-01-04 11:29:16,661 [DEBUG] Changing transaction state from "PROCESSING REPLY" to "TRANSACTION_COMPLETE"
2024-01-04 11:29:16,662 [INFO] Successfully wrote 600.0 to PLC register 1 for 10.202.240.12:502
2024-01-04 11:29:16,662 [DEBUG] Current transaction state - TRANSACTION_COMPLETE
2024-01-04 11:29:16,662 [DEBUG] Running transaction 10
2024-01-04 11:29:16,662 [DEBUG] SEND: 0x0 0xa 0x0 0x0 0x0 0x9 0x0 0x10 0x0 0x1 0x0 0x1 0x2 0x27 0x10
2024-01-04 11:29:16,662 [DEBUG] New Transaction state "SENDING"
2024-01-04 11:29:16,662 [DEBUG] Changing transaction state from "SENDING" to "WAITING FOR REPLY"
2024-01-04 11:29:16,666 [DEBUG] Changing transaction state from "WAITING FOR REPLY" to "PROCESSING REPLY"
2024-01-04 11:29:16,666 [DEBUG] RECV: 0x0 0xa 0x0 0x0 0x0 0x6 0x0 0x10 0x0 0x1 0x0 0x1
2024-01-04 11:29:16,667 [DEBUG] Processing: 0x0 0xa 0x0 0x0 0x0 0x6 0x0 0x10 0x0 0x1 0x0 0x1
2024-01-04 11:29:16,667 [DEBUG] Factory Response[WriteMultipleRegistersResponse': 16]
2024-01-04 11:29:16,667 [DEBUG] Adding transaction 10
2024-01-04 11:29:16,667 [DEBUG] Getting transaction 10
2024-01-04 11:29:16,667 [DEBUG] Changing transaction state from "PROCESSING REPLY" to "TRANSACTION_COMPLETE"
2024-01-04 11:29:16,667 [INFO] Successfully wrote 1000.0 to PLC register 2 for 10.202.240.12:502
2024-01-04 11:29:16,667 [INFO] server_inputs: [600.0, 1000.0]
2024-01-04 11:29:17,701 [DEBUG] [65459]
2024-01-04 11:29:17,701 [DEBUG] Current transaction state - TRANSACTION_COMPLETE
2024-01-04 11:29:17,701 [DEBUG] Running transaction 6
2024-01-04 11:29:17,701 [DEBUG] SEND: 0x0 0x6 0x0 0x0 0x0 0x9 0x0 0x10 0x0 0x0 0x0 0x1 0x2 0xff 0xb3
2024-01-04 11:29:17,701 [DEBUG] New Transaction state "SENDING"
2024-01-04 11:29:17,701 [DEBUG] Changing transaction state from "SENDING" to "WAITING FOR REPLY"
2024-01-04 11:29:18,185 [DEBUG] Changing transaction state from "WAITING FOR REPLY" to "PROCESSING REPLY"
2024-01-04 11:29:18,185 [DEBUG] RECV: 0x0 0x6 0x0 0x0 0x0 0x6 0x0 0x10 0x2 0x0 0x0 0x1
2024-01-04 11:29:18,186 [DEBUG] Processing: 0x0 0x6 0x0 0x0 0x0 0x6 0x0 0x10 0x2 0x0 0x0 0x1
2024-01-04 11:29:18,186 [DEBUG] Factory Response[WriteMultipleRegistersResponse': 16]
2024-01-04 11:29:18,186 [DEBUG] Adding transaction 6
2024-01-04 11:29:18,186 [DEBUG] Getting transaction 6
2024-01-04 11:29:18,186 [DEBUG] Changing transaction state from "PROCESSING REPLY" to "TRANSACTION_COMPLETE"
2024-01-04 11:29:18,186 [INFO] Successfully wrote -7.7 to PLC register 1 for 10.208.8.11:502
2024-01-04 11:29:18,186 [DEBUG] [6000, 10000]
2024-01-04 11:29:18,186 [DEBUG] Current transaction state - TRANSACTION_COMPLETE
2024-01-04 11:29:18,186 [DEBUG] Running transaction 11
2024-01-04 11:29:18,186 [DEBUG] SEND: 0x0 0xb 0x0 0x0 0x0 0x9 0x0 0x10 0x0 0x0 0x0 0x1 0x2 0x17 0x70
2024-01-04 11:29:18,186 [DEBUG] New Transaction state "SENDING"
2024-01-04 11:29:18,186 [DEBUG] Changing transaction state from "SENDING" to "WAITING FOR REPLY"
2024-01-04 11:29:18,193 [DEBUG] Changing transaction state from "WAITING FOR REPLY" to "PROCESSING REPLY"
2024-01-04 11:29:18,193 [DEBUG] RECV: 0x0 0xb 0x0 0x0 0x0 0x6 0x0 0x10 0x0 0x0 0x0 0x1
2024-01-04 11:29:18,193 [DEBUG] Processing: 0x0 0xb 0x0 0x0 0x0 0x6 0x0 0x10 0x0 0x0 0x0 0x1
2024-01-04 11:29:18,193 [DEBUG] Factory Response[WriteMultipleRegistersResponse': 16]
2024-01-04 11:29:18,193 [DEBUG] Adding transaction 11
2024-01-04 11:29:18,193 [DEBUG] Getting transaction 11
2024-01-04 11:29:18,193 [DEBUG] Changing transaction state from "PROCESSING REPLY" to "TRANSACTION_COMPLETE"
2024-01-04 11:29:18,193 [INFO] Successfully wrote 600.0 to PLC register 1 for 10.202.240.12:502
2024-01-04 11:29:18,193 [DEBUG] Current transaction state - TRANSACTION_COMPLETE
2024-01-04 11:29:18,193 [DEBUG] Running transaction 12
2024-01-04 11:29:18,193 [DEBUG] SEND: 0x0 0xc 0x0 0x0 0x0 0x9 0x0 0x10 0x0 0x1 0x0 0x1 0x2 0x27 0x10
2024-01-04 11:29:18,193 [DEBUG] New Transaction state "SENDING"
2024-01-04 11:29:18,193 [DEBUG] Changing transaction state from "SENDING" to "WAITING FOR REPLY"
2024-01-04 11:29:18,211 [DEBUG] Changing transaction state from "WAITING FOR REPLY" to "PROCESSING REPLY"
2024-01-04 11:29:18,211 [DEBUG] RECV: 0x0 0xc 0x0 0x0 0x0 0x6 0x0 0x10 0x0 0x1 0x0 0x1
2024-01-04 11:29:18,211 [DEBUG] Processing: 0x0 0xc 0x0 0x0 0x0 0x6 0x0 0x10 0x0 0x1 0x0 0x1
2024-01-04 11:29:18,211 [DEBUG] Factory Response[WriteMultipleRegistersResponse': 16]
2024-01-04 11:29:18,211 [DEBUG] Adding transaction 12
2024-01-04 11:29:18,211 [DEBUG] Getting transaction 12
2024-01-04 11:29:18,211 [DEBUG] Changing transaction state from "PROCESSING REPLY" to "TRANSACTION_COMPLETE"
2024-01-04 11:29:18,211 [INFO] Successfully wrote 1000.0 to PLC register 2 for 10.202.240.12:502
2024-01-04 11:29:18,211 [INFO] server_inputs: [600.0, 1000.0]
2024-01-04 11:29:19,238 [DEBUG] [65459]
2024-01-04 11:29:19,238 [DEBUG] Current transaction state - TRANSACTION_COMPLETE
2024-01-04 11:29:19,238 [DEBUG] Running transaction 7
2024-01-04 11:29:19,239 [DEBUG] SEND: 0x0 0x7 0x0 0x0 0x0 0x9 0x0 0x10 0x0 0x0 0x0 0x1 0x2 0xff 0xb3
2024-01-04 11:29:19,239 [DEBUG] New Transaction state "SENDING"
2024-01-04 11:29:19,239 [DEBUG] Changing transaction state from "SENDING" to "WAITING FOR REPLY"
2024-01-04 11:29:19,735 [DEBUG] Changing transaction state from "WAITING FOR REPLY" to "PROCESSING REPLY"
2024-01-04 11:29:19,735 [DEBUG] RECV: 0x0 0x7 0x0 0x0 0x0 0x6 0x0 0x10 0x2 0x0 0x0 0x1
2024-01-04 11:29:19,735 [DEBUG] Processing: 0x0 0x7 0x0 0x0 0x0 0x6 0x0 0x10 0x2 0x0 0x0 0x1
2024-01-04 11:29:19,735 [DEBUG] Factory Response[WriteMultipleRegistersResponse': 16]
2024-01-04 11:29:19,735 [DEBUG] Adding transaction 7
2024-01-04 11:29:19,735 [DEBUG] Getting transaction 7
2024-01-04 11:29:19,735 [DEBUG] Changing transaction state from "PROCESSING REPLY" to "TRANSACTION_COMPLETE"
2024-01-04 11:29:19,735 [INFO] Successfully wrote -7.7 to PLC register 1 for 10.208.8.11:502
2024-01-04 11:29:19,735 [DEBUG] [6000, 10000]
2024-01-04 11:29:19,735 [DEBUG] Current transaction state - TRANSACTION_COMPLETE
2024-01-04 11:29:19,735 [DEBUG] Running transaction 13
2024-01-04 11:29:19,735 [DEBUG] SEND: 0x0 0xd 0x0 0x0 0x0 0x9 0x0 0x10 0x0 0x0 0x0 0x1 0x2 0x17 0x70
2024-01-04 11:29:19,735 [DEBUG] New Transaction state "SENDING"
2024-01-04 11:29:19,736 [DEBUG] Changing transaction state from "SENDING" to "WAITING FOR REPLY"
2024-01-04 11:29:19,743 [DEBUG] Changing transaction state from "WAITING FOR REPLY" to "PROCESSING REPLY"
2024-01-04 11:29:19,743 [DEBUG] RECV: 0x0 0xd 0x0 0x0 0x0 0x6 0x0 0x10 0x0 0x0 0x0 0x1
2024-01-04 11:29:19,743 [DEBUG] Processing: 0x0 0xd 0x0 0x0 0x0 0x6 0x0 0x10 0x0 0x0 0x0 0x1
2024-01-04 11:29:19,743 [DEBUG] Factory Response[WriteMultipleRegistersResponse': 16]
2024-01-04 11:29:19,743 [DEBUG] Adding transaction 13
2024-01-04 11:29:19,743 [DEBUG] Getting transaction 13
2024-01-04 11:29:19,744 [DEBUG] Changing transaction state from "PROCESSING REPLY" to "TRANSACTION_COMPLETE"
2024-01-04 11:29:19,744 [INFO] Successfully wrote 600.0 to PLC register 1 for 10.202.240.12:502
2024-01-04 11:29:19,744 [DEBUG] Current transaction state - TRANSACTION_COMPLETE
2024-01-04 11:29:19,744 [DEBUG] Running transaction 14
2024-01-04 11:29:19,744 [DEBUG] SEND: 0x0 0xe 0x0 0x0 0x0 0x9 0x0 0x10 0x0 0x1 0x0 0x1 0x2 0x27 0x10
2024-01-04 11:29:19,744 [DEBUG] New Transaction state "SENDING"
2024-01-04 11:29:19,744 [DEBUG] Changing transaction state from "SENDING" to "WAITING FOR REPLY"
2024-01-04 11:29:19,749 [DEBUG] Changing transaction state from "WAITING FOR REPLY" to "PROCESSING REPLY"
2024-01-04 11:29:19,749 [DEBUG] RECV: 0x0 0xe 0x0 0x0 0x0 0x6 0x0 0x10 0x0 0x1 0x0 0x1
2024-01-04 11:29:19,749 [DEBUG] Processing: 0x0 0xe 0x0 0x0 0x0 0x6 0x0 0x10 0x0 0x1 0x0 0x1
2024-01-04 11:29:19,749 [DEBUG] Factory Response[WriteMultipleRegistersResponse': 16]
2024-01-04 11:29:19,749 [DEBUG] Adding transaction 14
2024-01-04 11:29:19,749 [DEBUG] Getting transaction 14
2024-01-04 11:29:19,749 [DEBUG] Changing transaction state from "PROCESSING REPLY" to "TRANSACTION_COMPLETE"
2024-01-04 11:29:19,749 [INFO] Successfully wrote 1000.0 to PLC register 2 for 10.202.240.12:502
2024-01-04 11:29:19,749 [INFO] server_inputs: [600.0, 1000.0]
2024-01-04 11:29:20,801 [DEBUG] [65459]
2024-01-04 11:29:20,801 [DEBUG] Current transaction state - TRANSACTION_COMPLETE
2024-01-04 11:29:20,802 [DEBUG] Running transaction 8
2024-01-04 11:29:20,802 [DEBUG] SEND: 0x0 0x8 0x0 0x0 0x0 0x9 0x0 0x10 0x0 0x0 0x0 0x1 0x2 0xff 0xb3
2024-01-04 11:29:20,802 [DEBUG] New Transaction state "SENDING"
2024-01-04 11:29:20,802 [DEBUG] Changing transaction state from "SENDING" to "WAITING FOR REPLY"
2024-01-04 11:29:20,989 [DEBUG] Changing transaction state from "WAITING FOR REPLY" to "PROCESSING REPLY"
2024-01-04 11:29:20,989 [DEBUG] RECV: 0x0 0x8 0x0 0x0 0x0 0x6 0x0 0x10 0x2 0x0 0x0 0x1
2024-01-04 11:29:20,989 [DEBUG] Processing: 0x0 0x8 0x0 0x0 0x0 0x6 0x0 0x10 0x2 0x0 0x0 0x1
2024-01-04 11:29:20,990 [DEBUG] Factory Response[WriteMultipleRegistersResponse': 16]
2024-01-04 11:29:20,990 [DEBUG] Adding transaction 8
2024-01-04 11:29:20,990 [DEBUG] Getting transaction 8
2024-01-04 11:29:20,990 [DEBUG] Changing transaction state from "PROCESSING REPLY" to "TRANSACTION_COMPLETE"
2024-01-04 11:29:20,990 [INFO] Successfully wrote -7.7 to PLC register 1 for 10.208.8.11:502
2024-01-04 11:29:20,990 [DEBUG] [6000, 10000]
2024-01-04 11:29:20,990 [DEBUG] Current transaction state - TRANSACTION_COMPLETE
2024-01-04 11:29:20,990 [DEBUG] Running transaction 15
2024-01-04 11:29:20,990 [DEBUG] SEND: 0x0 0xf 0x0 0x0 0x0 0x9 0x0 0x10 0x0 0x0 0x0 0x1 0x2 0x17 0x70
2024-01-04 11:29:20,990 [DEBUG] New Transaction state "SENDING"
2024-01-04 11:29:20,990 [DEBUG] Changing transaction state from "SENDING" to "WAITING FOR REPLY"
2024-01-04 11:29:20,997 [DEBUG] Changing transaction state from "WAITING FOR REPLY" to "PROCESSING REPLY"
2024-01-04 11:29:20,997 [DEBUG] RECV: 0x0 0xf 0x0 0x0 0x0 0x6 0x0 0x10 0x0 0x0 0x0 0x1
2024-01-04 11:29:20,997 [DEBUG] Processing: 0x0 0xf 0x0 0x0 0x0 0x6 0x0 0x10 0x0 0x0 0x0 0x1
2024-01-04 11:29:20,997 [DEBUG] Factory Response[WriteMultipleRegistersResponse': 16]
2024-01-04 11:29:20,997 [DEBUG] Adding transaction 15
2024-01-04 11:29:20,997 [DEBUG] Getting transaction 15
2024-01-04 11:29:20,997 [DEBUG] Changing transaction state from "PROCESSING REPLY" to "TRANSACTION_COMPLETE"
2024-01-04 11:29:20,997 [INFO] Successfully wrote 600.0 to PLC register 1 for 10.202.240.12:502
2024-01-04 11:29:20,997 [DEBUG] Current transaction state - TRANSACTION_COMPLETE
2024-01-04 11:29:20,997 [DEBUG] Running transaction 16
2024-01-04 11:29:20,997 [DEBUG] SEND: 0x0 0x10 0x0 0x0 0x0 0x9 0x0 0x10 0x0 0x1 0x0 0x1 0x2 0x27 0x10
2024-01-04 11:29:20,997 [DEBUG] New Transaction state "SENDING"
2024-01-04 11:29:20,997 [DEBUG] Changing transaction state from "SENDING" to "WAITING FOR REPLY"
2024-01-04 11:29:21,002 [DEBUG] Changing transaction state from "WAITING FOR REPLY" to "PROCESSING REPLY"
2024-01-04 11:29:21,002 [DEBUG] RECV: 0x0 0x10 0x0 0x0 0x0 0x6 0x0 0x10 0x0 0x1 0x0 0x1
2024-01-04 11:29:21,003 [DEBUG] Processing: 0x0 0x10 0x0 0x0 0x0 0x6 0x0 0x10 0x0 0x1 0x0 0x1
2024-01-04 11:29:21,003 [DEBUG] Factory Response[WriteMultipleRegistersResponse': 16]
2024-01-04 11:29:21,003 [DEBUG] Adding transaction 16
2024-01-04 11:29:21,003 [DEBUG] Getting transaction 16
2024-01-04 11:29:21,003 [DEBUG] Changing transaction state from "PROCESSING REPLY" to "TRANSACTION_COMPLETE"
2024-01-04 11:29:21,003 [INFO] Successfully wrote 1000.0 to PLC register 2 for 10.202.240.12:502
2024-01-04 11:29:21,003 [INFO] server_inputs: [600.0, 1000.0]
2024-01-04 11:29:22,036 [DEBUG] [65459]
2024-01-04 11:29:22,036 [DEBUG] Current transaction state - TRANSACTION_COMPLETE
2024-01-04 11:29:22,036 [DEBUG] Running transaction 9
2024-01-04 11:29:22,036 [DEBUG] SEND: 0x0 0x9 0x0 0x0 0x0 0x9 0x0 0x10 0x0 0x0 0x0 0x1 0x2 0xff 0xb3
2024-01-04 11:29:22,036 [DEBUG] New Transaction state "SENDING"
2024-01-04 11:29:22,036 [DEBUG] Changing transaction state from "SENDING" to "WAITING FOR REPLY"
2024-01-04 11:29:22,256 [DEBUG] Changing transaction state from "WAITING FOR REPLY" to "PROCESSING REPLY"
2024-01-04 11:29:22,256 [DEBUG] RECV: 0x0 0x9 0x0 0x0 0x0 0x6 0x0 0x10 0x2 0x0 0x0 0x1
2024-01-04 11:29:22,256 [DEBUG] Processing: 0x0 0x9 0x0 0x0 0x0 0x6 0x0 0x10 0x2 0x0 0x0 0x1
2024-01-04 11:29:22,256 [DEBUG] Factory Response[WriteMultipleRegistersResponse': 16]
2024-01-04 11:29:22,256 [DEBUG] Adding transaction 9
2024-01-04 11:29:22,256 [DEBUG] Getting transaction 9
2024-01-04 11:29:22,256 [DEBUG] Changing transaction state from "PROCESSING REPLY" to "TRANSACTION_COMPLETE"
2024-01-04 11:29:22,257 [INFO] Successfully wrote -7.7 to PLC register 1 for 10.208.8.11:502
2024-01-04 11:29:22,257 [DEBUG] [6000, 10000]
2024-01-04 11:29:22,257 [DEBUG] Current transaction state - TRANSACTION_COMPLETE
2024-01-04 11:29:22,257 [DEBUG] Running transaction 17
2024-01-04 11:29:22,257 [DEBUG] SEND: 0x0 0x11 0x0 0x0 0x0 0x9 0x0 0x10 0x0 0x0 0x0 0x1 0x2 0x17 0x70
2024-01-04 11:29:22,257 [DEBUG] New Transaction state "SENDING"
2024-01-04 11:29:22,257 [DEBUG] Changing transaction state from "SENDING" to "WAITING FOR REPLY"
2024-01-04 11:29:22,265 [DEBUG] Changing transaction state from "WAITING FOR REPLY" to "PROCESSING REPLY"
2024-01-04 11:29:22,265 [DEBUG] RECV: 0x0 0x11 0x0 0x0 0x0 0x6 0x0 0x10 0x0 0x0 0x0 0x1
2024-01-04 11:29:22,265 [DEBUG] Processing: 0x0 0x11 0x0 0x0 0x0 0x6 0x0 0x10 0x0 0x0 0x0 0x1
2024-01-04 11:29:22,265 [DEBUG] Factory Response[WriteMultipleRegistersResponse': 16]
2024-01-04 11:29:22,265 [DEBUG] Adding transaction 17
2024-01-04 11:29:22,265 [DEBUG] Getting transaction 17
2024-01-04 11:29:22,265 [DEBUG] Changing transaction state from "PROCESSING REPLY" to "TRANSACTION_COMPLETE"
2024-01-04 11:29:22,265 [INFO] Successfully wrote 600.0 to PLC register 1 for 10.202.240.12:502
2024-01-04 11:29:22,265 [DEBUG] Current transaction state - TRANSACTION_COMPLETE
2024-01-04 11:29:22,265 [DEBUG] Running transaction 18
2024-01-04 11:29:22,265 [DEBUG] SEND: 0x0 0x12 0x0 0x0 0x0 0x9 0x0 0x10 0x0 0x1 0x0 0x1 0x2 0x27 0x10
2024-01-04 11:29:22,265 [DEBUG] New Transaction state "SENDING"
2024-01-04 11:29:22,265 [DEBUG] Changing transaction state from "SENDING" to "WAITING FOR REPLY"
2024-01-04 11:29:22,270 [DEBUG] Changing transaction state from "WAITING FOR REPLY" to "PROCESSING REPLY"
2024-01-04 11:29:22,270 [DEBUG] RECV: 0x0 0x12 0x0 0x0 0x0 0x6 0x0 0x10 0x0 0x1 0x0 0x1
2024-01-04 11:29:22,270 [DEBUG] Processing: 0x0 0x12 0x0 0x0 0x0 0x6 0x0 0x10 0x0 0x1 0x0 0x1
2024-01-04 11:29:22,270 [DEBUG] Factory Response[WriteMultipleRegistersResponse': 16]
2024-01-04 11:29:22,270 [DEBUG] Adding transaction 18
2024-01-04 11:29:22,270 [DEBUG] Getting transaction 18
2024-01-04 11:29:22,270 [DEBUG] Changing transaction state from "PROCESSING REPLY" to "TRANSACTION_COMPLETE"
2024-01-04 11:29:22,270 [INFO] Successfully wrote 1000.0 to PLC register 2 for 10.202.240.12:502
2024-01-04 11:29:22,270 [INFO] server_inputs: [600.0, 1000.0]
2024-01-04 11:29:23,305 [DEBUG] [65459]
2024-01-04 11:29:23,305 [DEBUG] Current transaction state - TRANSACTION_COMPLETE
2024-01-04 11:29:23,305 [DEBUG] Running transaction 10
2024-01-04 11:29:23,305 [DEBUG] SEND: 0x0 0xa 0x0 0x0 0x0 0x9 0x0 0x10 0x0 0x0 0x0 0x1 0x2 0xff 0xb3
2024-01-04 11:29:23,305 [DEBUG] New Transaction state "SENDING"
2024-01-04 11:29:23,305 [DEBUG] Changing transaction state from "SENDING" to "WAITING FOR REPLY"
2024-01-04 11:29:23,540 [DEBUG] Changing transaction state from "WAITING FOR REPLY" to "PROCESSING REPLY"
2024-01-04 11:29:23,540 [DEBUG] RECV: 0x0 0xa 0x0 0x0 0x0 0x6 0x0 0x10 0x2 0x0 0x0 0x1
2024-01-04 11:29:23,540 [DEBUG] Processing: 0x0 0xa 0x0 0x0 0x0 0x6 0x0 0x10 0x2 0x0 0x0 0x1
2024-01-04 11:29:23,540 [DEBUG] Factory Response[WriteMultipleRegistersResponse': 16]
2024-01-04 11:29:23,540 [DEBUG] Adding transaction 10
2024-01-04 11:29:23,540 [DEBUG] Getting transaction 10
2024-01-04 11:29:23,540 [DEBUG] Changing transaction state from "PROCESSING REPLY" to "TRANSACTION_COMPLETE"
2024-01-04 11:29:23,540 [INFO] Successfully wrote -7.7 to PLC register 1 for 10.208.8.11:502
2024-01-04 11:29:23,540 [DEBUG] [6000, 10000]
2024-01-04 11:29:23,540 [DEBUG] Current transaction state - TRANSACTION_COMPLETE
2024-01-04 11:29:23,540 [DEBUG] Running transaction 19
2024-01-04 11:29:23,540 [DEBUG] SEND: 0x0 0x13 0x0 0x0 0x0 0x9 0x0 0x10 0x0 0x0 0x0 0x1 0x2 0x17 0x70
2024-01-04 11:29:23,540 [DEBUG] New Transaction state "SENDING"
2024-01-04 11:29:23,541 [DEBUG] Changing transaction state from "SENDING" to "WAITING FOR REPLY"
2024-01-04 11:29:23,546 [DEBUG] Changing transaction state from "WAITING FOR REPLY" to "PROCESSING REPLY"
2024-01-04 11:29:23,546 [DEBUG] RECV: 0x0 0x13 0x0 0x0 0x0 0x6 0x0 0x10 0x0 0x0 0x0 0x1
2024-01-04 11:29:23,546 [DEBUG] Processing: 0x0 0x13 0x0 0x0 0x0 0x6 0x0 0x10 0x0 0x0 0x0 0x1
2024-01-04 11:29:23,546 [DEBUG] Factory Response[WriteMultipleRegistersResponse': 16]
2024-01-04 11:29:23,546 [DEBUG] Adding transaction 19
2024-01-04 11:29:23,546 [DEBUG] Getting transaction 19
2024-01-04 11:29:23,546 [DEBUG] Changing transaction state from "PROCESSING REPLY" to "TRANSACTION_COMPLETE"
2024-01-04 11:29:23,546 [INFO] Successfully wrote 600.0 to PLC register 1 for 10.202.240.12:502
2024-01-04 11:29:23,546 [DEBUG] Current transaction state - TRANSACTION_COMPLETE
2024-01-04 11:29:23,546 [DEBUG] Running transaction 20
2024-01-04 11:29:23,546 [DEBUG] SEND: 0x0 0x14 0x0 0x0 0x0 0x9 0x0 0x10 0x0 0x1 0x0 0x1 0x2 0x27 0x10
2024-01-04 11:29:23,547 [DEBUG] New Transaction state "SENDING"
2024-01-04 11:29:23,547 [DEBUG] Changing transaction state from "SENDING" to "WAITING FOR REPLY"
2024-01-04 11:29:23,551 [DEBUG] Changing transaction state from "WAITING FOR REPLY" to "PROCESSING REPLY"
2024-01-04 11:29:23,551 [DEBUG] RECV: 0x0 0x14 0x0 0x0 0x0 0x6 0x0 0x10 0x0 0x1 0x0 0x1
2024-01-04 11:29:23,551 [DEBUG] Processing: 0x0 0x14 0x0 0x0 0x0 0x6 0x0 0x10 0x0 0x1 0x0 0x1
2024-01-04 11:29:23,551 [DEBUG] Factory Response[WriteMultipleRegistersResponse': 16]
2024-01-04 11:29:23,551 [DEBUG] Adding transaction 20
2024-01-04 11:29:23,552 [DEBUG] Getting transaction 20
2024-01-04 11:29:23,552 [DEBUG] Changing transaction state from "PROCESSING REPLY" to "TRANSACTION_COMPLETE"
2024-01-04 11:29:23,552 [INFO] Successfully wrote 1000.0 to PLC register 2 for 10.202.240.12:502
2024-01-04 11:29:23,552 [INFO] server_inputs: [600.0, 1000.0]
2024-01-04 11:29:24,588 [DEBUG] [65459]
2024-01-04 11:29:24,588 [DEBUG] Current transaction state - TRANSACTION_COMPLETE
2024-01-04 11:29:24,588 [DEBUG] Running transaction 11
2024-01-04 11:29:24,588 [DEBUG] SEND: 0x0 0xb 0x0 0x0 0x0 0x9 0x0 0x10 0x0 0x0 0x0 0x1 0x2 0xff 0xb3
2024-01-04 11:29:24,588 [DEBUG] New Transaction state "SENDING"
2024-01-04 11:29:24,588 [DEBUG] Changing transaction state from "SENDING" to "WAITING FOR REPLY"
2024-01-04 11:29:24,815 [DEBUG] Changing transaction state from "WAITING FOR REPLY" to "PROCESSING REPLY"
2024-01-04 11:29:24,815 [DEBUG] RECV: 0x0 0xb 0x0 0x0 0x0 0x6 0x0 0x10 0x2 0x0 0x0 0x1
2024-01-04 11:29:24,815 [DEBUG] Processing: 0x0 0xb 0x0 0x0 0x0 0x6 0x0 0x10 0x2 0x0 0x0 0x1
2024-01-04 11:29:24,815 [DEBUG] Factory Response[WriteMultipleRegistersResponse': 16]
2024-01-04 11:29:24,815 [DEBUG] Adding transaction 11
2024-01-04 11:29:24,815 [DEBUG] Getting transaction 11
2024-01-04 11:29:24,815 [DEBUG] Changing transaction state from "PROCESSING REPLY" to "TRANSACTION_COMPLETE"
2024-01-04 11:29:24,815 [INFO] Successfully wrote -7.7 to PLC register 1 for 10.208.8.11:502
2024-01-04 11:29:24,816 [DEBUG] [6000, 10000]
2024-01-04 11:29:24,816 [DEBUG] Current transaction state - TRANSACTION_COMPLETE
2024-01-04 11:29:24,816 [DEBUG] Running transaction 21
2024-01-04 11:29:24,816 [DEBUG] SEND: 0x0 0x15 0x0 0x0 0x0 0x9 0x0 0x10 0x0 0x0 0x0 0x1 0x2 0x17 0x70
2024-01-04 11:29:24,816 [DEBUG] New Transaction state "SENDING"
2024-01-04 11:29:24,816 [DEBUG] Changing transaction state from "SENDING" to "WAITING FOR REPLY"
2024-01-04 11:29:24,821 [DEBUG] Changing transaction state from "WAITING FOR REPLY" to "PROCESSING REPLY"
2024-01-04 11:29:24,821 [DEBUG] RECV: 0x0 0x15 0x0 0x0 0x0 0x6 0x0 0x10 0x0 0x0 0x0 0x1
2024-01-04 11:29:24,821 [DEBUG] Processing: 0x0 0x15 0x0 0x0 0x0 0x6 0x0 0x10 0x0 0x0 0x0 0x1
2024-01-04 11:29:24,821 [DEBUG] Factory Response[WriteMultipleRegistersResponse': 16]
2024-01-04 11:29:24,821 [DEBUG] Adding transaction 21
2024-01-04 11:29:24,821 [DEBUG] Getting transaction 21
2024-01-04 11:29:24,821 [DEBUG] Changing transaction state from "PROCESSING REPLY" to "TRANSACTION_COMPLETE"
2024-01-04 11:29:24,821 [INFO] Successfully wrote 600.0 to PLC register 1 for 10.202.240.12:502
2024-01-04 11:29:24,821 [DEBUG] Current transaction state - TRANSACTION_COMPLETE
2024-01-04 11:29:24,821 [DEBUG] Running transaction 22
2024-01-04 11:29:24,821 [DEBUG] SEND: 0x0 0x16 0x0 0x0 0x0 0x9 0x0 0x10 0x0 0x1 0x0 0x1 0x2 0x27 0x10
2024-01-04 11:29:24,821 [DEBUG] New Transaction state "SENDING"
2024-01-04 11:29:24,821 [DEBUG] Changing transaction state from "SENDING" to "WAITING FOR REPLY"
2024-01-04 11:29:24,826 [DEBUG] Changing transaction state from "WAITING FOR REPLY" to "PROCESSING REPLY"
2024-01-04 11:29:24,826 [DEBUG] RECV: 0x0 0x16 0x0 0x0 0x0 0x6 0x0 0x10 0x0 0x1 0x0 0x1
2024-01-04 11:29:24,827 [DEBUG] Processing: 0x0 0x16 0x0 0x0 0x0 0x6 0x0 0x10 0x0 0x1 0x0 0x1
2024-01-04 11:29:24,827 [DEBUG] Factory Response[WriteMultipleRegistersResponse': 16]
2024-01-04 11:29:24,827 [DEBUG] Adding transaction 22
2024-01-04 11:29:24,827 [DEBUG] Getting transaction 22
2024-01-04 11:29:24,827 [DEBUG] Changing transaction state from "PROCESSING REPLY" to "TRANSACTION_COMPLETE"
2024-01-04 11:29:24,827 [INFO] Successfully wrote 1000.0 to PLC register 2 for 10.202.240.12:502
2024-01-04 11:29:24,827 [INFO] server_inputs: [600.0, 1000.0]
2024-01-04 11:30:27,606 [DEBUG] [65459]
2024-01-04 11:30:27,796 [DEBUG] Connection to Modbus server established. Socket ('10.202.240.26', 11643)
2024-01-04 11:30:27,796 [DEBUG] Current transaction state - IDLE
2024-01-04 11:30:27,796 [DEBUG] Running transaction 1
2024-01-04 11:30:27,796 [DEBUG] SEND: 0x0 0x1 0x0 0x0 0x0 0x9 0x0 0x10 0x0 0x0 0x0 0x1 0x2 0xff 0xb3
2024-01-04 11:30:27,796 [DEBUG] New Transaction state "SENDING"
2024-01-04 11:30:27,796 [DEBUG] Changing transaction state from "SENDING" to "WAITING FOR REPLY"
2024-01-04 11:30:28,360 [DEBUG] Changing transaction state from "WAITING FOR REPLY" to "PROCESSING REPLY"
2024-01-04 11:30:28,360 [DEBUG] RECV: 0x0 0x1 0x0 0x0 0x0 0x6 0x0 0x10 0x2 0x0 0x0 0x1
